name,type,start_time,duration,"identifier","num_data_bytes","crc","ack","data"
"CAN","identifier_field",2024-09-25T12:10:31.203176200+00:00,0.00006,0x0000000000000300,,,,
"CAN","control_field",2024-09-25T12:10:31.203240200+00:00,0.000012,,0x0000000000000008,,,
"CAN","data_field",2024-09-25T12:10:31.203256200+00:00,0.000036,,,,,0x00
"CAN","data_field",2024-09-25T12:10:31.203296200+00:00,0.000028,,,,,0x5A
"CAN","data_field",2024-09-25T12:10:31.203328200+00:00,0.000028,,,,,0x64
"CAN","data_field",2024-09-25T12:10:31.203360200+00:00,0.000028,,,,,0x5A
"CAN","data_field",2024-09-25T12:10:31.203392200+00:00,0.000032,,,,,0x00
"CAN","data_field",2024-09-25T12:10:31.203428200+00:00,0.000036,,,,,0x00
"CAN","data_field",2024-09-25T12:10:31.203468200+00:00,0.000032,,,,,0x00
"CAN","data_field",2024-09-25T12:10:31.203508200+00:00,0.000028,,,,,0xAE
"CAN","crc_field",2024-09-25T12:10:31.203540200+00:00,0.00006,,,0x0000000000000338,,
"CAN","ack_field",2024-09-25T12:10:31.203608200+00:00,0.000004,,,,true,
"CAN","identifier_field",2024-09-25T12:10:31.203660200+00:00,0.000056,0x0000000000000301,,,,
"CAN","control_field",2024-09-25T12:10:31.203720200+00:00,0.000016,,0x0000000000000003,,,
"CAN","data_field",2024-09-25T12:10:31.203740200+00:00,0.000028,,,,,0x1D
"CAN","data_field",2024-09-25T12:10:31.203772200+00:00,0.000028,,,,,0x0E
"CAN","data_field",2024-09-25T12:10:31.203804200+00:00,0.000032,,,,,0x00
"CAN","crc_field",2024-09-25T12:10:31.203840200+00:00,0.00006,,,0x00000000000060D7,,
"CAN","ack_field",2024-09-25T12:10:31.203908200+00:00,0.000004,,,,true,
"CAN","identifier_field",2024-09-25T12:10:31.253182700+00:00,0.00006,0x0000000000000300,,,,
"CAN","control_field",2024-09-25T12:10:31.253246700+00:00,0.000012,,0x0000000000000008,,,
"CAN","data_field",2024-09-25T12:10:31.253262700+00:00,0.000036,,,,,0x00
"CAN","data_field",2024-09-25T12:10:31.253302700+00:00,0.000028,,,,,0x5A
"CAN","data_field",2024-09-25T12:10:31.253334700+00:00,0.000028,,,,,0x64
"CAN","data_field",2024-09-25T12:10:31.253366700+00:00,0.000028,,,,,0x5A
"CAN","data_field",2024-09-25T12:10:31.253398700+00:00,0.000032,,,,,0x00
"CAN","data_field",2024-09-25T12:10:31.253434700+00:00,0.000036,,,,,0x00
"CAN","data_field",2024-09-25T12:10:31.253474700+00:00,0.000032,,,,,0x00
"CAN","data_field",2024-09-25T12:10:31.253514700+00:00,0.000032,,,,,0xBF
"CAN","crc_field",2024-09-25T12:10:31.253550700+00:00,0.000056,,,0x0000000000006B36,,
"CAN","ack_field",2024-09-25T12:10:31.253614700+00:00,0.000004,,,,true,
"CAN","identifier_field",2024-09-25T12:10:31.253667200+00:00,0.000056,0x0000000000000301,,,,
"CAN","control_field",2024-09-25T12:10:31.253727200+00:00,0.000016,,0x0000000000000003,,,
"CAN","data_field",2024-09-25T12:10:31.253747200+00:00,0.000032,,,,,0xE8
"CAN","data_field",2024-09-25T12:10:31.253783200+00:00,0.000032,,,,,0x0F
"CAN","data_field",2024-09-25T12:10:31.253819200+00:00,0.000032,,,,,0x00
"CAN","crc_field",2024-09-25T12:10:31.253855200+00:00,0.000056,,,0x00000000000077B9,,
"CAN","ack_field",2024-09-25T12:10:31.253919200+00:00,0.000004,,,,true,
"CAN","identifier_field",2024-09-25T12:10:31.303188700+00:00,0.00006,0x0000000000000300,,,,
"CAN","control_field",2024-09-25T12:10:31.303252700+00:00,0.000012,,0x0000000000000008,,,
"CAN","data_field",2024-09-25T12:10:31.303268700+00:00,0.000036,,,,,0x00
"CAN","data_field",2024-09-25T12:10:31.303308700+00:00,0.000028,,,,,0x5A
"CAN","data_field",2024-09-25T12:10:31.303340700+00:00,0.000028,,,,,0x64
"CAN","data_field",2024-09-25T12:10:31.303372700+00:00,0.000028,,,,,0x5A
"CAN","data_field",2024-09-25T12:10:31.303404700+00:00,0.000032,,,,,0x00
"CAN","data_field",2024-09-25T12:10:31.303440700+00:00,0.000036,,,,,0x00
"CAN","data_field",2024-09-25T12:10:31.303480700+00:00,0.000032,,,,,0x00
"CAN","data_field",2024-09-25T12:10:31.303520700+00:00,0.000032,,,,,0x40
"CAN","crc_field",2024-09-25T12:10:31.303556700+00:00,0.000056,,,0x0000000000006BA3,,
"CAN","ack_field",2024-09-25T12:10:31.303620700+00:00,0.000004,,,,true,
"CAN","identifier_field",2024-09-25T12:10:31.303672700+00:00,0.000056,0x0000000000000301,,,,
"CAN","control_field",2024-09-25T12:10:31.303732700+00:00,0.000016,,0x0000000000000003,,,
"CAN","data_field",2024-09-25T12:10:31.303752700+00:00,0.000032,,,,,0xE2
"CAN","data_field",2024-09-25T12:10:31.303788700+00:00,0.000032,,,,,0x00
"CAN","data_field",2024-09-25T12:10:31.303824700+00:00,0.000036,,,,,0x00
"CAN","crc_field",2024-09-25T12:10:31.303864700+00:00,0.000056,,,0x0000000000002F6A,,
"CAN","ack_field",2024-09-25T12:10:31.303928700+00:00,0.000004,,,,true,
"CAN","identifier_field",2024-09-25T12:10:31.353195700+00:00,0.00006,0x0000000000000300,,,,
"CAN","control_field",2024-09-25T12:10:31.353259700+00:00,0.000012,,0x0000000000000008,,,
"CAN","data_field",2024-09-25T12:10:31.353275700+00:00,0.000036,,,,,0x00
"CAN","data_field",2024-09-25T12:10:31.353315700+00:00,0.000028,,,,,0x5A
"CAN","data_field",2024-09-25T12:10:31.353347700+00:00,0.000028,,,,,0x64
"CAN","data_field",2024-09-25T12:10:31.353379700+00:00,0.000028,,,,,0x5A
"CAN","data_field",2024-09-25T12:10:31.353411700+00:00,0.000032,,,,,0x00
"CAN","data_field",2024-09-25T12:10:31.353447700+00:00,0.000036,,,,,0x00
"CAN","data_field",2024-09-25T12:10:31.353487700+00:00,0.000032,,,,,0x00
"CAN","data_field",2024-09-25T12:10:31.353527700+00:00,0.000028,,,,,0x51
"CAN","crc_field",2024-09-25T12:10:31.353559700+00:00,0.00006,,,0x00000000000003AD,,
"CAN","ack_field",2024-09-25T12:10:31.353627700+00:00,0.000004,,,,true,
"CAN","identifier_field",2024-09-25T12:10:31.353679700+00:00,0.000056,0x0000000000000301,,,,
"CAN","control_field",2024-09-25T12:10:31.353739700+00:00,0.000016,,0x0000000000000003,,,
"CAN","data_field",2024-09-25T12:10:31.353759700+00:00,0.000028,,,,,0xB3
"CAN","data_field",2024-09-25T12:10:31.353791700+00:00,0.000032,,,,,0x01
"CAN","data_field",2024-09-25T12:10:31.353827700+00:00,0.000032,,,,,0x00
"CAN","crc_field",2024-09-25T12:10:31.353863700+00:00,0.00006,,,0x0000000000007FC5,,
"CAN","ack_field",2024-09-25T12:10:31.353931700+00:00,0.000004,,,,true,
"CAN","identifier_field",2024-09-25T12:10:31.403198200+00:00,0.00006,0x0000000000000300,,,,
"CAN","control_field",2024-09-25T12:10:31.403262200+00:00,0.000012,,0x0000000000000008,,,
"CAN","data_field",2024-09-25T12:10:31.403278200+00:00,0.000036,,,,,0x00
"CAN","data_field",2024-09-25T12:10:31.403318200+00:00,0.000028,,,,,0x5A
"CAN","data_field",2024-09-25T12:10:31.403350200+00:00,0.000028,,,,,0x64
"CAN","data_field",2024-09-25T12:10:31.403382200+00:00,0.000028,,,,,0x5A
"CAN","data_field",2024-09-25T12:10:31.403414200+00:00,0.000032,,,,,0x00
"CAN","data_field",2024-09-25T12:10:31.403450200+00:00,0.000036,,,,,0x00
"CAN","data_field",2024-09-25T12:10:31.403490200+00:00,0.000032,,,,,0x00
"CAN","data_field",2024-09-25T12:10:31.403530200+00:00,0.000028,,,,,0x62
"CAN","crc_field",2024-09-25T12:10:31.403562200+00:00,0.00006,,,0x0000000000007E26,,
"CAN","ack_field",2024-09-25T12:10:31.403630200+00:00,0.000004,,,,true,
"CAN","identifier_field",2024-09-25T12:10:31.403682200+00:00,0.000056,0x0000000000000301,,,,
"CAN","control_field",2024-09-25T12:10:31.403742200+00:00,0.000016,,0x0000000000000003,,,
"CAN","data_field",2024-09-25T12:10:31.403762200+00:00,0.000028,,,,,0x6B
"CAN","data_field",2024-09-25T12:10:31.403794200+00:00,0.000032,,,,,0x02
"CAN","data_field",2024-09-25T12:10:31.403830200+00:00,0.000032,,,,,0x00
"CAN","crc_field",2024-09-25T12:10:31.403866200+00:00,0.000056,,,0x0000000000004E8A,,
"CAN","ack_field",2024-09-25T12:10:31.403930200+00:00,0.000004,,,,true,
"CAN","identifier_field",2024-09-25T12:10:31.453204700+00:00,0.00006,0x0000000000000300,,,,
"CAN","control_field",2024-09-25T12:10:31.453268700+00:00,0.000012,,0x0000000000000008,,,
"CAN","data_field",2024-09-25T12:10:31.453284700+00:00,0.000036,,,,,0x00
"CAN","data_field",2024-09-25T12:10:31.453324700+00:00,0.000028,,,,,0x5A
"CAN","data_field",2024-09-25T12:10:31.453356700+00:00,0.000028,,,,,0x64
"CAN","data_field",2024-09-25T12:10:31.453388700+00:00,0.000028,,,,,0x5A
"CAN","data_field",2024-09-25T12:10:31.453420700+00:00,0.000032,,,,,0x00
"CAN","data_field",2024-09-25T12:10:31.453456700+00:00,0.000036,,,,,0x00
"CAN","data_field",2024-09-25T12:10:31.453496700+00:00,0.000032,,,,,0x00
"CAN","data_field",2024-09-25T12:10:31.453536700+00:00,0.000028,,,,,0x73
"CAN","crc_field",2024-09-25T12:10:31.453568700+00:00,0.000056,,,0x0000000000001628,,
"CAN","ack_field",2024-09-25T12:10:31.453632700+00:00,0.000004,,,,true,
"CAN","identifier_field",2024-09-25T12:10:31.453684700+00:00,0.000056,0x0000000000000301,,,,
"CAN","control_field",2024-09-25T12:10:31.453744700+00:00,0.000016,,0x0000000000000003,,,
"CAN","data_field",2024-09-25T12:10:31.453764700+00:00,0.000028,,,,,0x96
"CAN","data_field",2024-09-25T12:10:31.453796700+00:00,0.000032,,,,,0x03
"CAN","data_field",2024-09-25T12:10:31.453832700+00:00,0.000032,,,,,0x00
"CAN","crc_field",2024-09-25T12:10:31.453868700+00:00,0.00006,,,0x0000000000000AB9,,
"CAN","ack_field",2024-09-25T12:10:31.453936700+00:00,0.000004,,,,true,
"CAN","identifier_field",2024-09-25T12:10:31.503210700+00:00,0.00006,0x0000000000000300,,,,
"CAN","control_field",2024-09-25T12:10:31.503274700+00:00,0.000012,,0x0000000000000008,,,
"CAN","data_field",2024-09-25T12:10:31.503290700+00:00,0.000036,,,,,0x00
"CAN","data_field",2024-09-25T12:10:31.503330700+00:00,0.000028,,,,,0x5A
"CAN","data_field",2024-09-25T12:10:31.503362700+00:00,0.000028,,,,,0x64
"CAN","data_field",2024-09-25T12:10:31.503394700+00:00,0.000028,,,,,0x5A
"CAN","data_field",2024-09-25T12:10:31.503426700+00:00,0.000032,,,,,0x00
"CAN","data_field",2024-09-25T12:10:31.503462700+00:00,0.000036,,,,,0x00
"CAN","data_field",2024-09-25T12:10:31.503502700+00:00,0.000032,,,,,0x00
"CAN","data_field",2024-09-25T12:10:31.503542700+00:00,0.000032,,,,,0x04
"CAN","crc_field",2024-09-25T12:10:31.503578700+00:00,0.00006,,,0x00000000000040A9,,
"CAN","ack_field",2024-09-25T12:10:31.503646700+00:00,0.000004,,,,true,
"CAN","identifier_field",2024-09-25T12:10:31.503698700+00:00,0.000056,0x0000000000000301,,,,
"CAN","control_field",2024-09-25T12:10:31.503758700+00:00,0.000016,,0x0000000000000003,,,
"CAN","data_field",2024-09-25T12:10:31.503778700+00:00,0.000032,,,,,0x03
"CAN","data_field",2024-09-25T12:10:31.503814700+00:00,0.000032,,,,,0x04
"CAN","data_field",2024-09-25T12:10:31.503850700+00:00,0.000032,,,,,0x00
"CAN","crc_field",2024-09-25T12:10:31.503890700+00:00,0.000056,,,0x0000000000000A50,,
"CAN","ack_field",2024-09-25T12:10:31.503954700+00:00,0.000004,,,,true,
"CAN","identifier_field",2024-09-25T12:10:31.553214700+00:00,0.00006,0x0000000000000300,,,,
"CAN","control_field",2024-09-25T12:10:31.553278700+00:00,0.000012,,0x0000000000000008,,,
"CAN","data_field",2024-09-25T12:10:31.553294700+00:00,0.000036,,,,,0x00
"CAN","data_field",2024-09-25T12:10:31.553334700+00:00,0.000028,,,,,0x5A
"CAN","data_field",2024-09-25T12:10:31.553366700+00:00,0.000028,,,,,0x64
"CAN","data_field",2024-09-25T12:10:31.553398700+00:00,0.000028,,,,,0x5A
"CAN","data_field",2024-09-25T12:10:31.553430700+00:00,0.000032,,,,,0x00
"CAN","data_field",2024-09-25T12:10:31.553466700+00:00,0.000036,,,,,0x00
"CAN","data_field",2024-09-25T12:10:31.553506700+00:00,0.000032,,,,,0x00
"CAN","data_field",2024-09-25T12:10:31.553546700+00:00,0.000028,,,,,0x15
"CAN","crc_field",2024-09-25T12:10:31.553578700+00:00,0.000056,,,0x00000000000028A7,,
"CAN","ack_field",2024-09-25T12:10:31.553642700+00:00,0.000004,,,,true,
"CAN","identifier_field",2024-09-25T12:10:31.553694700+00:00,0.000056,0x0000000000000301,,,,
"CAN","control_field",2024-09-25T12:10:31.553754700+00:00,0.000016,,0x0000000000000003,,,
"CAN","data_field",2024-09-25T12:10:31.553774700+00:00,0.000028,,,,,0x54
"CAN","data_field",2024-09-25T12:10:31.553806700+00:00,0.000032,,,,,0x05
"CAN","data_field",2024-09-25T12:10:31.553842700+00:00,0.000032,,,,,0x00
"CAN","crc_field",2024-09-25T12:10:31.553878700+00:00,0.000056,,,0x000000000000342C,,
"CAN","ack_field",2024-09-25T12:10:31.553942700+00:00,0.000004,,,,true,
"CAN","identifier_field",2024-09-25T12:10:31.604000200+00:00,0.00006,0x0000000000000300,,,,
"CAN","control_field",2024-09-25T12:10:31.604064200+00:00,0.000012,,0x0000000000000008,,,
"CAN","data_field",2024-09-25T12:10:31.604080200+00:00,0.000036,,,,,0x00
"CAN","data_field",2024-09-25T12:10:31.604120200+00:00,0.000028,,,,,0x5A
"CAN","data_field",2024-09-25T12:10:31.604152200+00:00,0.000028,,,,,0x64
"CAN","data_field",2024-09-25T12:10:31.604184200+00:00,0.000028,,,,,0x5A
"CAN","data_field",2024-09-25T12:10:31.604216200+00:00,0.000032,,,,,0x00
"CAN","data_field",2024-09-25T12:10:31.604252200+00:00,0.000036,,,,,0x00
"CAN","data_field",2024-09-25T12:10:31.604292200+00:00,0.000032,,,,,0x00
"CAN","data_field",2024-09-25T12:10:31.604332200+00:00,0.000028,,,,,0x26
"CAN","crc_field",2024-09-25T12:10:31.604364200+00:00,0.000056,,,0x000000000000552C,,
"CAN","ack_field",2024-09-25T12:10:31.604428200+00:00,0.000004,,,,true,
"CAN","identifier_field",2024-09-25T12:10:31.604480200+00:00,0.000056,0x0000000000000301,,,,
"CAN","control_field",2024-09-25T12:10:31.604540200+00:00,0.000016,,0x0000000000000003,,,
"CAN","data_field",2024-09-25T12:10:31.604560200+00:00,0.000032,,,,,0xF5
"CAN","data_field",2024-09-25T12:10:31.604596200+00:00,0.000032,,,,,0x06
"CAN","data_field",2024-09-25T12:10:31.604632200+00:00,0.000032,,,,,0x00
"CAN","crc_field",2024-09-25T12:10:31.604668200+00:00,0.00006,,,0x0000000000004168,,
"CAN","ack_field",2024-09-25T12:10:31.604736200+00:00,0.000004,,,,true,
"CAN","identifier_field",2024-09-25T12:10:31.653227200+00:00,0.00006,0x0000000000000300,,,,
"CAN","control_field",2024-09-25T12:10:31.653291200+00:00,0.000012,,0x0000000000000008,,,
"CAN","data_field",2024-09-25T12:10:31.653307200+00:00,0.000036,,,,,0x00
"CAN","data_field",2024-09-25T12:10:31.653347200+00:00,0.000028,,,,,0x5A
"CAN","data_field",2024-09-25T12:10:31.653379200+00:00,0.000028,,,,,0x64
"CAN","data_field",2024-09-25T12:10:31.653411200+00:00,0.000028,,,,,0x5A
"CAN","data_field",2024-09-25T12:10:31.653443200+00:00,0.000032,,,,,0x00
"CAN","data_field",2024-09-25T12:10:31.653479200+00:00,0.000036,,,,,0x00
"CAN","data_field",2024-09-25T12:10:31.653519200+00:00,0.000032,,,,,0x00
"CAN","data_field",2024-09-25T12:10:31.653559200+00:00,0.000028,,,,,0x37
"CAN","crc_field",2024-09-25T12:10:31.653591200+00:00,0.000056,,,0x0000000000003D22,,
"CAN","ack_field",2024-09-25T12:10:31.653655200+00:00,0.000004,,,,true,
"CAN","identifier_field",2024-09-25T12:10:31.653707200+00:00,0.000056,0x0000000000000301,,,,
"CAN","control_field",2024-09-25T12:10:31.653767200+00:00,0.000016,,0x0000000000000003,,,
"CAN","data_field",2024-09-25T12:10:31.653787200+00:00,0.000028,,,,,0xB8
"CAN","data_field",2024-09-25T12:10:31.653819200+00:00,0.000032,,,,,0x07
"CAN","data_field",2024-09-25T12:10:31.653855200+00:00,0.000032,,,,,0x00
"CAN","crc_field",2024-09-25T12:10:31.653891200+00:00,0.000056,,,0x0000000000006ADB,,
"CAN","ack_field",2024-09-25T12:10:31.653955200+00:00,0.000004,,,,true,
"CAN","identifier_field",2024-09-25T12:10:31.703233200+00:00,0.00006,0x0000000000000300,,,,
"CAN","control_field",2024-09-25T12:10:31.703297200+00:00,0.000012,,0x0000000000000008,,,
"CAN","data_field",2024-09-25T12:10:31.703313200+00:00,0.000036,,,,,0x00
"CAN","data_field",2024-09-25T12:10:31.703353200+00:00,0.000028,,,,,0x5A
"CAN","data_field",2024-09-25T12:10:31.703385200+00:00,0.000028,,,,,0x64
"CAN","data_field",2024-09-25T12:10:31.703417200+00:00,0.000028,,,,,0x5A
"CAN","data_field",2024-09-25T12:10:31.703449200+00:00,0.000032,,,,,0x00
"CAN","data_field",2024-09-25T12:10:31.703485200+00:00,0.000036,,,,,0x00
"CAN","data_field",2024-09-25T12:10:31.703525200+00:00,0.000032,,,,,0x00
"CAN","data_field",2024-09-25T12:10:31.703565200+00:00,0.000028,,,,,0xC8
"CAN","crc_field",2024-09-25T12:10:31.703597200+00:00,0.000056,,,0x0000000000003DB7,,
"CAN","ack_field",2024-09-25T12:10:31.703661200+00:00,0.000004,,,,true,
"CAN","identifier_field",2024-09-25T12:10:31.703713200+00:00,0.000056,0x0000000000000301,,,,
"CAN","control_field",2024-09-25T12:10:31.703773200+00:00,0.000016,,0x0000000000000003,,,
"CAN","data_field",2024-09-25T12:10:31.703793200+00:00,0.000032,,,,,0x80
"CAN","data_field",2024-09-25T12:10:31.703829200+00:00,0.000032,,,,,0x08
"CAN","data_field",2024-09-25T12:10:31.703865200+00:00,0.000036,,,,,0x00
"CAN","crc_field",2024-09-25T12:10:31.703905200+00:00,0.000056,,,0x0000000000007745,,
"CAN","ack_field",2024-09-25T12:10:31.703969200+00:00,0.000004,,,,true,
"CAN","identifier_field",2024-09-25T12:10:31.753236200+00:00,0.00006,0x0000000000000300,,,,
"CAN","control_field",2024-09-25T12:10:31.753300200+00:00,0.000012,,0x0000000000000008,,,
"CAN","data_field",2024-09-25T12:10:31.753316200+00:00,0.000036,,,,,0x00
"CAN","data_field",2024-09-25T12:10:31.753356200+00:00,0.000028,,,,,0x5A
"CAN","data_field",2024-09-25T12:10:31.753388200+00:00,0.000028,,,,,0x64
"CAN","data_field",2024-09-25T12:10:31.753420200+00:00,0.000028,,,,,0x5A
"CAN","data_field",2024-09-25T12:10:31.753452200+00:00,0.000032,,,,,0x00
"CAN","data_field",2024-09-25T12:10:31.753488200+00:00,0.000036,,,,,0x00
"CAN","data_field",2024-09-25T12:10:31.753528200+00:00,0.000032,,,,,0x00
"CAN","data_field",2024-09-25T12:10:31.753568200+00:00,0.000028,,,,,0xD9
"CAN","crc_field",2024-09-25T12:10:31.753600200+00:00,0.000056,,,0x00000000000055B9,,
"CAN","ack_field",2024-09-25T12:10:31.753664200+00:00,0.000004,,,,true,
"CAN","identifier_field",2024-09-25T12:10:31.753716200+00:00,0.000056,0x0000000000000301,,,,
"CAN","control_field",2024-09-25T12:10:31.753776200+00:00,0.000016,,0x0000000000000003,,,
"CAN","data_field",2024-09-25T12:10:31.753796200+00:00,0.000028,,,,,0x88
"CAN","data_field",2024-09-25T12:10:31.753828200+00:00,0.000032,,,,,0x09
"CAN","data_field",2024-09-25T12:10:31.753864200+00:00,0.000032,,,,,0x00
"CAN","crc_field",2024-09-25T12:10:31.753900200+00:00,0.000064,,,0x000000000000603E,,
"CAN","ack_field",2024-09-25T12:10:31.753972200+00:00,0.000004,,,,true,
"CAN","identifier_field",2024-09-25T12:10:31.803242700+00:00,0.00006,0x0000000000000300,,,,
"CAN","control_field",2024-09-25T12:10:31.803306700+00:00,0.000012,,0x0000000000000008,,,
"CAN","data_field",2024-09-25T12:10:31.803322700+00:00,0.000036,,,,,0x00
"CAN","data_field",2024-09-25T12:10:31.803362700+00:00,0.000028,,,,,0x5A
"CAN","data_field",2024-09-25T12:10:31.803394700+00:00,0.000028,,,,,0x64
"CAN","data_field",2024-09-25T12:10:31.803426700+00:00,0.000028,,,,,0x5A
"CAN","data_field",2024-09-25T12:10:31.803458700+00:00,0.000032,,,,,0x00
"CAN","data_field",2024-09-25T12:10:31.803494700+00:00,0.000036,,,,,0x00
"CAN","data_field",2024-09-25T12:10:31.803534700+00:00,0.000032,,,,,0x00
"CAN","data_field",2024-09-25T12:10:31.803574700+00:00,0.000028,,,,,0xEA
"CAN","crc_field",2024-09-25T12:10:31.803606700+00:00,0.00006,,,0x0000000000002832,,
"CAN","ack_field",2024-09-25T12:10:31.803674700+00:00,0.000004,,,,true,
"CAN","identifier_field",2024-09-25T12:10:31.803726700+00:00,0.000056,0x0000000000000301,,,,
"CAN","control_field",2024-09-25T12:10:31.803786700+00:00,0.000016,,0x0000000000000003,,,
"CAN","data_field",2024-09-25T12:10:31.803806700+00:00,0.000032,,,,,0xC6
"CAN","data_field",2024-09-25T12:10:31.803842700+00:00,0.000032,,,,,0x0A
"CAN","data_field",2024-09-25T12:10:31.803878700+00:00,0.000032,,,,,0x00
"CAN","crc_field",2024-09-25T12:10:31.803914700+00:00,0.00006,,,0x00000000000053FD,,
"CAN","ack_field",2024-09-25T12:10:31.803982700+00:00,0.000004,,,,true,
"CAN","identifier_field",2024-09-25T12:10:31.853248200+00:00,0.00006,0x0000000000000300,,,,
"CAN","control_field",2024-09-25T12:10:31.853312200+00:00,0.000012,,0x0000000000000008,,,
"CAN","data_field",2024-09-25T12:10:31.853328200+00:00,0.000036,,,,,0x00
"CAN","data_field",2024-09-25T12:10:31.853368200+00:00,0.000028,,,,,0x5A
"CAN","data_field",2024-09-25T12:10:31.853400200+00:00,0.000028,,,,,0x64
"CAN","data_field",2024-09-25T12:10:31.853432200+00:00,0.000028,,,,,0x5A
"CAN","data_field",2024-09-25T12:10:31.853464200+00:00,0.000032,,,,,0x00
"CAN","data_field",2024-09-25T12:10:31.853500200+00:00,0.000036,,,,,0x00
