name,type,start_time,duration,"identifier","num_data_bytes","crc","ack","data"
"CAN","identifier_field",2024-09-25T12:26:56.347342800+00:00,0.000056,0x0000000000000404,,,,
"CAN","control_field",2024-09-25T12:26:56.347406800+00:00,0.000012,,0x0000000000000002,,,
"CAN","data_field",2024-09-25T12:26:56.347422800+00:00,0.000028,,,,,0x4D
"CAN","data_field",2024-09-25T12:26:56.347454800+00:00,0.000032,,,,,0x00
"CAN","crc_field",2024-09-25T12:26:56.347490800+00:00,0.000056,,,0x0000000000006DE7,,
"CAN","ack_field",2024-09-25T12:26:56.347554800+00:00,0.000004,,,,true,
"CAN","identifier_field",2024-09-25T12:26:56.365472800+00:00,0.00006,0x0000000000000300,,,,
"CAN","control_field",2024-09-25T12:26:56.365536800+00:00,0.000012,,0x0000000000000008,,,
"CAN","data_field",2024-09-25T12:26:56.365552800+00:00,0.000032,,,,,0x03
"CAN","data_field",2024-09-25T12:26:56.365588800+00:00,0.000028,,,,,0x5A
"CAN","data_field",2024-09-25T12:26:56.365620800+00:00,0.000028,,,,,0x64
"CAN","data_field",2024-09-25T12:26:56.365652800+00:00,0.000028,,,,,0x5A
"CAN","data_field",2024-09-25T12:26:56.365684800+00:00,0.000028,,,,,0x32
"CAN","data_field",2024-09-25T12:26:56.365716800+00:00,0.000032,,,,,0x00
"CAN","data_field",2024-09-25T12:26:56.365752800+00:00,0.000032,,,,,0x32
"CAN","data_field",2024-09-25T12:26:56.365788800+00:00,0.000028,,,,,0x36
"CAN","crc_field",2024-09-25T12:26:56.365820800+00:00,0.00006,,,0x00000000000006B1,,
"CAN","ack_field",2024-09-25T12:26:56.365888800+00:00,0.000004,,,,true,
"CAN","identifier_field",2024-09-25T12:26:56.365940800+00:00,0.000056,0x0000000000000301,,,,
"CAN","control_field",2024-09-25T12:26:56.366000800+00:00,0.000016,,0x0000000000000003,,,
"CAN","data_field",2024-09-25T12:26:56.366020800+00:00,0.000032,,,,,0xF5
"CAN","data_field",2024-09-25T12:26:56.366056800+00:00,0.000032,,,,,0x06
"CAN","data_field",2024-09-25T12:26:56.366092800+00:00,0.000032,,,,,0x00
"CAN","crc_field",2024-09-25T12:26:56.366128800+00:00,0.00006,,,0x0000000000004168,,
"CAN","ack_field",2024-09-25T12:26:56.366196800+00:00,0.000004,,,,true,
"CAN","identifier_field",2024-09-25T12:26:56.378618300+00:00,0.000056,0x0000000000000404,,,,
"CAN","control_field",2024-09-25T12:26:56.378682300+00:00,0.000012,,0x0000000000000002,,,
"CAN","data_field",2024-09-25T12:26:56.378698300+00:00,0.000028,,,,,0x50
"CAN","data_field",2024-09-25T12:26:56.378730300+00:00,0.000036,,,,,0x00
"CAN","crc_field",2024-09-25T12:26:56.378770300+00:00,0.000056,,,0x000000000000386A,,
"CAN","ack_field",2024-09-25T12:26:56.378834300+00:00,0.000004,,,,true,
"CAN","identifier_field",2024-09-25T12:26:56.409954800+00:00,0.000056,0x0000000000000404,,,,
"CAN","control_field",2024-09-25T12:26:56.410018800+00:00,0.000012,,0x0000000000000002,,,
"CAN","data_field",2024-09-25T12:26:56.410034800+00:00,0.000032,,,,,0x02
"CAN","data_field",2024-09-25T12:26:56.410070800+00:00,0.000032,,,,,0x00
"CAN","crc_field",2024-09-25T12:26:56.410106800+00:00,0.00006,,,0x0000000000005FDD,,
"CAN","ack_field",2024-09-25T12:26:56.410174800+00:00,0.000004,,,,true,
"CAN","identifier_field",2024-09-25T12:26:56.415477800+00:00,0.00006,0x0000000000000300,,,,
"CAN","control_field",2024-09-25T12:26:56.415541800+00:00,0.000012,,0x0000000000000008,,,
"CAN","data_field",2024-09-25T12:26:56.415557800+00:00,0.000032,,,,,0x03
"CAN","data_field",2024-09-25T12:26:56.415593800+00:00,0.000028,,,,,0x5A
"CAN","data_field",2024-09-25T12:26:56.415625800+00:00,0.000028,,,,,0x64
"CAN","data_field",2024-09-25T12:26:56.415657800+00:00,0.000028,,,,,0x5A
"CAN","data_field",2024-09-25T12:26:56.415689800+00:00,0.000028,,,,,0x32
"CAN","data_field",2024-09-25T12:26:56.415721800+00:00,0.000032,,,,,0x00
"CAN","data_field",2024-09-25T12:26:56.415757800+00:00,0.000032,,,,,0x32
"CAN","data_field",2024-09-25T12:26:56.415793800+00:00,0.000028,,,,,0x37
"CAN","crc_field",2024-09-25T12:26:56.415825800+00:00,0.000056,,,0x0000000000004328,,
"CAN","ack_field",2024-09-25T12:26:56.415889800+00:00,0.000004,,,,true,
"CAN","identifier_field",2024-09-25T12:26:56.415941800+00:00,0.000056,0x0000000000000301,,,,
"CAN","control_field",2024-09-25T12:26:56.416001800+00:00,0.000016,,0x0000000000000003,,,
"CAN","data_field",2024-09-25T12:26:56.416021800+00:00,0.000028,,,,,0xB8
"CAN","data_field",2024-09-25T12:26:56.416053800+00:00,0.000032,,,,,0x07
"CAN","data_field",2024-09-25T12:26:56.416089800+00:00,0.000032,,,,,0x00
"CAN","crc_field",2024-09-25T12:26:56.416125800+00:00,0.000056,,,0x0000000000006ADB,,
"CAN","ack_field",2024-09-25T12:26:56.416189800+00:00,0.000004,,,,true,
"CAN","identifier_field",2024-09-25T12:26:56.446022800+00:00,0.000056,0x0000000000000404,,,,
"CAN","control_field",2024-09-25T12:26:56.446086800+00:00,0.000012,,0x0000000000000002,,,
"CAN","data_field",2024-09-25T12:26:56.446102800+00:00,0.000032,,,,,0x0A
"CAN","data_field",2024-09-25T12:26:56.446138800+00:00,0.000032,,,,,0x00
"CAN","crc_field",2024-09-25T12:26:56.446174800+00:00,0.00006,,,0x0000000000002622,,
"CAN","ack_field",2024-09-25T12:26:56.446242800+00:00,0.000004,,,,true,
"CAN","identifier_field",2024-09-25T12:26:56.465483300+00:00,0.00006,0x0000000000000300,,,,
"CAN","control_field",2024-09-25T12:26:56.465547300+00:00,0.000012,,0x0000000000000008,,,
"CAN","data_field",2024-09-25T12:26:56.465563300+00:00,0.000032,,,,,0x03
"CAN","data_field",2024-09-25T12:26:56.465599300+00:00,0.000028,,,,,0x5A
"CAN","data_field",2024-09-25T12:26:56.465631300+00:00,0.000028,,,,,0x64
"CAN","data_field",2024-09-25T12:26:56.465663300+00:00,0.000028,,,,,0x5A
"CAN","data_field",2024-09-25T12:26:56.465695300+00:00,0.000028,,,,,0x32
"CAN","data_field",2024-09-25T12:26:56.465727300+00:00,0.000032,,,,,0x00
"CAN","data_field",2024-09-25T12:26:56.465763300+00:00,0.000032,,,,,0x32
"CAN","data_field",2024-09-25T12:26:56.465799300+00:00,0.000032,,,,,0xF8
"CAN","crc_field",2024-09-25T12:26:56.465835300+00:00,0.000064,,,0x0000000000003504,,
"CAN","ack_field",2024-09-25T12:26:56.465907300+00:00,0.000004,,,,true,
"CAN","identifier_field",2024-09-25T12:26:56.465959300+00:00,0.000056,0x0000000000000301,,,,
"CAN","control_field",2024-09-25T12:26:56.466019300+00:00,0.000016,,0x0000000000000003,,,
"CAN","data_field",2024-09-25T12:26:56.466039300+00:00,0.000032,,,,,0x80
"CAN","data_field",2024-09-25T12:26:56.466075300+00:00,0.000032,,,,,0x08
"CAN","data_field",2024-09-25T12:26:56.466111300+00:00,0.000036,,,,,0x00
"CAN","crc_field",2024-09-25T12:26:56.466151300+00:00,0.000056,,,0x0000000000007745,,
"CAN","ack_field",2024-09-25T12:26:56.466215300+00:00,0.000004,,,,true,
"CAN","identifier_field",2024-09-25T12:26:56.472371800+00:00,0.000056,0x0000000000000404,,,,
"CAN","control_field",2024-09-25T12:26:56.472435800+00:00,0.000012,,0x0000000000000002,,,
"CAN","data_field",2024-09-25T12:26:56.472451800+00:00,0.000032,,,,,0x04
"CAN","data_field",2024-09-25T12:26:56.472487800+00:00,0.000032,,,,,0x00
"CAN","crc_field",2024-09-25T12:26:56.472527800+00:00,0.000056,,,0x0000000000004C3B,,
"CAN","ack_field",2024-09-25T12:26:56.472591800+00:00,0.000004,,,,true,
"CAN","identifier_field",2024-09-25T12:26:56.503625800+00:00,0.000056,0x0000000000000404,,,,
"CAN","control_field",2024-09-25T12:26:56.503689800+00:00,0.000012,,0x0000000000000002,,,
"CAN","data_field",2024-09-25T12:26:56.503705800+00:00,0.000028,,,,,0xB0
"CAN","data_field",2024-09-25T12:26:56.503737800+00:00,0.000036,,,,,0x01
"CAN","crc_field",2024-09-25T12:26:56.503777800+00:00,0.000056,,,0x0000000000003532,,
"CAN","ack_field",2024-09-25T12:26:56.503841800+00:00,0.000004,,,,true,
"CAN","identifier_field",2024-09-25T12:26:56.515486800+00:00,0.00006,0x0000000000000300,,,,
"CAN","control_field",2024-09-25T12:26:56.515550800+00:00,0.000012,,0x0000000000000008,,,
"CAN","data_field",2024-09-25T12:26:56.515566800+00:00,0.000032,,,,,0x03
"CAN","data_field",2024-09-25T12:26:56.515602800+00:00,0.000028,,,,,0x5A
"CAN","data_field",2024-09-25T12:26:56.515634800+00:00,0.000028,,,,,0x64
"CAN","data_field",2024-09-25T12:26:56.515666800+00:00,0.000028,,,,,0x5A
"CAN","data_field",2024-09-25T12:26:56.515698800+00:00,0.000028,,,,,0x32
"CAN","data_field",2024-09-25T12:26:56.515730800+00:00,0.000032,,,,,0x00
"CAN","data_field",2024-09-25T12:26:56.515766800+00:00,0.000032,,,,,0x32
"CAN","data_field",2024-09-25T12:26:56.515802800+00:00,0.000032,,,,,0xF9
"CAN","crc_field",2024-09-25T12:26:56.515838800+00:00,0.000056,,,0x000000000000709D,,
"CAN","ack_field",2024-09-25T12:26:56.515902800+00:00,0.000004,,,,true,
"CAN","identifier_field",2024-09-25T12:26:56.515954800+00:00,0.000056,0x0000000000000301,,,,
"CAN","control_field",2024-09-25T12:26:56.516014800+00:00,0.000016,,0x0000000000000003,,,
"CAN","data_field",2024-09-25T12:26:56.516034800+00:00,0.000028,,,,,0x88
"CAN","data_field",2024-09-25T12:26:56.516066800+00:00,0.000032,,,,,0x09
"CAN","data_field",2024-09-25T12:26:56.516102800+00:00,0.000032,,,,,0x00
"CAN","crc_field",2024-09-25T12:26:56.516138800+00:00,0.000064,,,0x000000000000603E,,
"CAN","ack_field",2024-09-25T12:26:56.516210800+00:00,0.000004,,,,true,
"CAN","identifier_field",2024-09-25T12:26:56.534912800+00:00,0.000056,0x0000000000000404,,,,
"CAN","control_field",2024-09-25T12:26:56.534976800+00:00,0.000012,,0x0000000000000002,,,
"CAN","data_field",2024-09-25T12:26:56.534992800+00:00,0.000028,,,,,0xB1
"CAN","data_field",2024-09-25T12:26:56.535024800+00:00,0.000032,,,,,0x01
"CAN","crc_field",2024-09-25T12:26:56.535060800+00:00,0.000056,,,0x0000000000007114,,
"CAN","ack_field",2024-09-25T12:26:56.535124800+00:00,0.000004,,,,true,
"CAN","identifier_field",2024-09-25T12:26:56.565494300+00:00,0.00006,0x0000000000000300,,,,
"CAN","control_field",2024-09-25T12:26:56.565558300+00:00,0.000012,,0x0000000000000008,,,
"CAN","data_field",2024-09-25T12:26:56.565574300+00:00,0.000032,,,,,0x03
"CAN","data_field",2024-09-25T12:26:56.565610300+00:00,0.000028,,,,,0x5A
"CAN","data_field",2024-09-25T12:26:56.565642300+00:00,0.000028,,,,,0x64
"CAN","data_field",2024-09-25T12:26:56.565674300+00:00,0.000028,,,,,0x5A
"CAN","data_field",2024-09-25T12:26:56.565706300+00:00,0.000028,,,,,0x32
"CAN","data_field",2024-09-25T12:26:56.565738300+00:00,0.000032,,,,,0x00
"CAN","data_field",2024-09-25T12:26:56.565774300+00:00,0.000032,,,,,0x32
"CAN","data_field",2024-09-25T12:26:56.565810300+00:00,0.000032,,,,,0xFA
"CAN","crc_field",2024-09-25T12:26:56.565846300+00:00,0.000056,,,0x0000000000007BAF,,
"CAN","ack_field",2024-09-25T12:26:56.565910300+00:00,0.000004,,,,true,
"CAN","identifier_field",2024-09-25T12:26:56.565962300+00:00,0.000056,0x0000000000000301,,,,
"CAN","control_field",2024-09-25T12:26:56.566022300+00:00,0.000016,,0x0000000000000003,,,
"CAN","data_field",2024-09-25T12:26:56.566042300+00:00,0.000032,,,,,0xC6
"CAN","data_field",2024-09-25T12:26:56.566078300+00:00,0.000032,,,,,0x0A
"CAN","data_field",2024-09-25T12:26:56.566114300+00:00,0.000032,,,,,0x00
"CAN","crc_field",2024-09-25T12:26:56.566150300+00:00,0.00006,,,0x00000000000053FD,,
"CAN","ack_field",2024-09-25T12:26:56.566218300+00:00,0.000004,,,,true,
"CAN","identifier_field",2024-09-25T12:26:56.615499800+00:00,0.00006,0x0000000000000300,,,,
"CAN","control_field",2024-09-25T12:26:56.615563800+00:00,0.000012,,0x0000000000000008,,,
"CAN","data_field",2024-09-25T12:26:56.615579800+00:00,0.000032,,,,,0x03
"CAN","data_field",2024-09-25T12:26:56.615615800+00:00,0.000028,,,,,0x5A
"CAN","data_field",2024-09-25T12:26:56.615647800+00:00,0.000028,,,,,0x64
"CAN","data_field",2024-09-25T12:26:56.615679800+00:00,0.000028,,,,,0x5A
"CAN","data_field",2024-09-25T12:26:56.615711800+00:00,0.000028,,,,,0x32
"CAN","data_field",2024-09-25T12:26:56.615743800+00:00,0.000032,,,,,0x00
"CAN","data_field",2024-09-25T12:26:56.615779800+00:00,0.000032,,,,,0x32
"CAN","data_field",2024-09-25T12:26:56.615815800+00:00,0.000032,,,,,0xFB
"CAN","crc_field",2024-09-25T12:26:56.615851800+00:00,0.00006,,,0x0000000000003E36,,
"CAN","ack_field",2024-09-25T12:26:56.615919800+00:00,0.000004,,,,true,
"CAN","identifier_field",2024-09-25T12:26:56.615971800+00:00,0.000056,0x0000000000000301,,,,
"CAN","control_field",2024-09-25T12:26:56.616031800+00:00,0.000016,,0x0000000000000003,,,
"CAN","data_field",2024-09-25T12:26:56.616051800+00:00,0.000028,,,,,0x43
"CAN","data_field",2024-09-25T12:26:56.616083800+00:00,0.000028,,,,,0x0B
"CAN","data_field",2024-09-25T12:26:56.616115800+00:00,0.000032,,,,,0x00
"CAN","crc_field",2024-09-25T12:26:56.616151800+00:00,0.000056,,,0x00000000000023D1,,
"CAN","ack_field",2024-09-25T12:26:56.616215800+00:00,0.000004,,,,true,
"CAN","identifier_field",2024-09-25T12:26:56.665504300+00:00,0.00006,0x0000000000000300,,,,
"CAN","control_field",2024-09-25T12:26:56.665568300+00:00,0.000012,,0x0000000000000008,,,
"CAN","data_field",2024-09-25T12:26:56.665584300+00:00,0.000032,,,,,0x03
"CAN","data_field",2024-09-25T12:26:56.665620300+00:00,0.000028,,,,,0x5A
"CAN","data_field",2024-09-25T12:26:56.665652300+00:00,0.000028,,,,,0x64
"CAN","data_field",2024-09-25T12:26:56.665684300+00:00,0.000028,,,,,0x5A
"CAN","data_field",2024-09-25T12:26:56.665716300+00:00,0.000028,,,,,0x32
"CAN","data_field",2024-09-25T12:26:56.665748300+00:00,0.000032,,,,,0x00
"CAN","data_field",2024-09-25T12:26:56.665784300+00:00,0.000032,,,,,0x32
"CAN","data_field",2024-09-25T12:26:56.665820300+00:00,0.000028,,,,,0xBC
"CAN","crc_field",2024-09-25T12:26:56.665852300+00:00,0.00006,,,0x0000000000001E0E,,
"CAN","ack_field",2024-09-25T12:26:56.665920300+00:00,0.000004,,,,true,
"CAN","identifier_field",2024-09-25T12:26:56.665972300+00:00,0.000056,0x0000000000000301,,,,
"CAN","control_field",2024-09-25T12:26:56.666032300+00:00,0.000016,,0x0000000000000003,,,
"CAN","data_field",2024-09-25T12:26:56.666052300+00:00,0.000028,,,,,0xB5
"CAN","data_field",2024-09-25T12:26:56.666084300+00:00,0.000028,,,,,0x0C
"CAN","data_field",2024-09-25T12:26:56.666116300+00:00,0.000032,,,,,0x00
"CAN","crc_field",2024-09-25T12:26:56.666156300+00:00,0.00006,,,0x00000000000072FC,,
"CAN","ack_field",2024-09-25T12:26:56.666224300+00:00,0.000004,,,,true,
"CAN","identifier_field",2024-09-25T12:26:56.716506300+00:00,0.00006,0x0000000000000300,,,,
"CAN","control_field",2024-09-25T12:26:56.716570300+00:00,0.000012,,0x0000000000000008,,,
"CAN","data_field",2024-09-25T12:26:56.716586300+00:00,0.000032,,,,,0x03
"CAN","data_field",2024-09-25T12:26:56.716622300+00:00,0.000028,,,,,0x5A
"CAN","data_field",2024-09-25T12:26:56.716654300+00:00,0.000028,,,,,0x64
"CAN","data_field",2024-09-25T12:26:56.716686300+00:00,0.000028,,,,,0x5A
"CAN","data_field",2024-09-25T12:26:56.716718300+00:00,0.000028,,,,,0x32
"CAN","data_field",2024-09-25T12:26:56.716750300+00:00,0.000032,,,,,0x00
"CAN","data_field",2024-09-25T12:26:56.716786300+00:00,0.000032,,,,,0x32
"CAN","data_field",2024-09-25T12:26:56.716822300+00:00,0.000028,,,,,0xBD
"CAN","crc_field",2024-09-25T12:26:56.716854300+00:00,0.000056,,,0x0000000000005B97,,
"CAN","ack_field",2024-09-25T12:26:56.716918300+00:00,0.000004,,,,true,
"CAN","identifier_field",2024-09-25T12:26:56.716970300+00:00,0.000056,0x0000000000000301,,,,
"CAN","control_field",2024-09-25T12:26:56.717030300+00:00,0.000016,,0x0000000000000003,,,
"CAN","data_field",2024-09-25T12:26:56.717050300+00:00,0.000028,,,,,0x4E
"CAN","data_field",2024-09-25T12:26:56.717082300+00:00,0.000032,,,,,0x0D
"CAN","data_field",2024-09-25T12:26:56.717118300+00:00,0.000032,,,,,0x00
"CAN","crc_field",2024-09-25T12:26:56.717154300+00:00,0.00006,,,0x000000000000581C,,
"CAN","ack_field",2024-09-25T12:26:56.717222300+00:00,0.000004,,,,true,
"CAN","identifier_field",2024-09-25T12:26:56.766514300+00:00,0.00006,0x0000000000000300,,,,
"CAN","control_field",2024-09-25T12:26:56.766578300+00:00,0.000012,,0x0000000000000008,,,
"CAN","data_field",2024-09-25T12:26:56.766594300+00:00,0.000032,,,,,0x03
"CAN","data_field",2024-09-25T12:26:56.766630300+00:00,0.000028,,,,,0x5A
"CAN","data_field",2024-09-25T12:26:56.766662300+00:00,0.000028,,,,,0x64
"CAN","data_field",2024-09-25T12:26:56.766694300+00:00,0.000028,,,,,0x5A
"CAN","data_field",2024-09-25T12:26:56.766726300+00:00,0.000028,,,,,0x32
"CAN","data_field",2024-09-25T12:26:56.766758300+00:00,0.000032,,,,,0x00
"CAN","data_field",2024-09-25T12:26:56.766794300+00:00,0.000032,,,,,0x32
"CAN","data_field",2024-09-25T12:26:56.766830300+00:00,0.000032,,,,,0xBE
"CAN","crc_field",2024-09-25T12:26:56.766866300+00:00,0.000056,,,0x00000000000050A5,,
"CAN","ack_field",2024-09-25T12:26:56.766930300+00:00,0.000004,,,,true,
"CAN","identifier_field",2024-09-25T12:26:56.766982300+00:00,0.000056,0x0000000000000301,,,,
"CAN","control_field",2024-09-25T12:26:56.767042300+00:00,0.000016,,0x0000000000000003,,,
"CAN","data_field",2024-09-25T12:26:56.767062300+00:00,0.000028,,,,,0x1D
"CAN","data_field",2024-09-25T12:26:56.767094300+00:00,0.000028,,,,,0x0E
"CAN","data_field",2024-09-25T12:26:56.767126300+00:00,0.000032,,,,,0x00
"CAN","crc_field",2024-09-25T12:26:56.767162300+00:00,0.00006,,,0x00000000000060D7,,
"CAN","ack_field",2024-09-25T12:26:56.767230300+00:00,0.000004,,,,true,
"CAN","identifier_field",2024-09-25T12:26:56.816519300+00:00,0.00006,0x0000000000000300,,,,
"CAN","control_field",2024-09-25T12:26:56.816583300+00:00,0.000012,,0x0000000000000008,,,
"CAN","data_field",2024-09-25T12:26:56.816599300+00:00,0.000032,,,,,0x03
"CAN","data_field",2024-09-25T12:26:56.816635300+00:00,0.000028,,,,,0x5A
"CAN","data_field",2024-09-25T12:26:56.816667300+00:00,0.000028,,,,,0x64
"CAN","data_field",2024-09-25T12:26:56.816699300+00:00,0.000028,,,,,0x5A
"CAN","data_field",2024-09-25T12:26:56.816731300+00:00,0.000028,,,,,0x32
"CAN","data_field",2024-09-25T12:26:56.816763300+00:00,0.000032,,,,,0x00
"CAN","data_field",2024-09-25T12:26:56.816799300+00:00,0.000032,,,,,0x32
"CAN","data_field",2024-09-25T12:26:56.816835300+00:00,0.000032,,,,,0xBF
"CAN","crc_field",2024-09-25T12:26:56.816871300+00:00,0.000056,,,0x000000000000153C,,
"CAN","ack_field",2024-09-25T12:26:56.816935300+00:00,0.000004,,,,true,
"CAN","identifier_field",2024-09-25T12:26:56.816987300+00:00,0.000056,0x0000000000000301,,,,
"CAN","control_field",2024-09-25T12:26:56.817047300+00:00,0.000016,,0x0000000000000003,,,
"CAN","data_field",2024-09-25T12:26:56.817067300+00:00,0.000032,,,,,0xE8
"CAN","data_field",2024-09-25T12:26:56.817103300+00:00,0.000032,,,,,0x0F
"CAN","data_field",2024-09-25T12:26:56.817139300+00:00,0.000032,,,,,0x00
"CAN","crc_field",2024-09-25T12:26:56.817175300+00:00,0.000056,,,0x00000000000077B9,,
"CAN","ack_field",2024-09-25T12:26:56.817239300+00:00,0.000004,,,,true,
"CAN","identifier_field",2024-09-25T12:26:56.867302800+00:00,0.00006,0x0000000000000300,,,,
"CAN","control_field",2024-09-25T12:26:56.867366800+00:00,0.000012,,0x0000000000000008,,,
"CAN","data_field",2024-09-25T12:26:56.867382800+00:00,0.000032,,,,,0x03
"CAN","data_field",2024-09-25T12:26:56.867418800+00:00,0.000028,,,,,0x5A
"CAN","data_field",2024-09-25T12:26:56.867450800+00:00,0.000028,,,,,0x64
"CAN","data_field",2024-09-25T12:26:56.867482800+00:00,0.000028,,,,,0x5A
"CAN","data_field",2024-09-25T12:26:56.867514800+00:00,0.000028,,,,,0x32
"CAN","data_field",2024-09-25T12:26:56.867546800+00:00,0.000032,,,,,0x00
"CAN","data_field",2024-09-25T12:26:56.867582800+00:00,0.000032,,,,,0x32
"CAN","data_field",2024-09-25T12:26:56.867618800+00:00,0.000028,,,,,0x70
"CAN","crc_field",2024-09-25T12:26:56.867650800+00:00,0.000056,,,0x0000000000006310,,
"CAN","ack_field",2024-09-25T12:26:56.867714800+00:00,0.000004,,,,true,
"CAN","identifier_field",2024-09-25T12:26:56.867766800+00:00,0.000056,0x0000000000000301,,,,
"CAN","control_field",2024-09-25T12:26:56.867826800+00:00,0.000016,,0x0000000000000003,,,
"CAN","data_field",2024-09-25T12:26:56.867846800+00:00,0.000032,,,,,0xE2
"CAN","data_field",2024-09-25T12:26:56.867882800+00:00,0.000032,,,,,0x00
"CAN","data_field",2024-09-25T12:26:56.867918800+00:00,0.000036,,,,,0x00
"CAN","crc_field",2024-09-25T12:26:56.867958800+00:00,0.000056,,,0x0000000000002F6A,,
"CAN","ack_field",2024-09-25T12:26:56.868022800+00:00,0.000004,,,,true,
"CAN","identifier_field",2024-09-25T12:26:56.916529300+00:00,0.00006,0x0000000000000300,,,,
"CAN","control_field",2024-09-25T12:26:56.916593300+00:00,0.000012,,0x0000000000000008,,,
