name,type,start_time,duration,"identifier","num_data_bytes","crc","ack","data"
"CAN","identifier_field",0.035774,0.00006,0x0000000000000300,,,,
"CAN","control_field",0.035838,0.000012,,0x0000000000000008,,,
"CAN","data_field",0.035854,0.000036,,,,,0x00
"CAN","data_field",0.035894,0.000028,,,,,0x5A
"CAN","data_field",0.035926,0.000028,,,,,0x64
"CAN","data_field",0.035958,0.000028,,,,,0x5A
"CAN","data_field",0.03599,0.000032,,,,,0x00
"CAN","data_field",0.036026,0.000036,,,,,0x00
"CAN","data_field",0.036066,0.000032,,,,,0x00
"CAN","data_field",0.036106,0.000028,,,,,0x62
"CAN","crc_field",0.036138,0.00006,,,0x0000000000007E26,,
"CAN","ack_field",0.036206,0.000004,,,,true,
"CAN","identifier_field",0.036258,0.000056,0x0000000000000301,,,,
"CAN","control_field",0.036318,0.000016,,0x0000000000000003,,,
"CAN","data_field",0.036338,0.000028,,,,,0x6B
"CAN","data_field",0.03637,0.000032,,,,,0x02
"CAN","data_field",0.036406,0.000032,,,,,0x00
"CAN","crc_field",0.036442,0.000056,,,0x0000000000004E8A,,
"CAN","ack_field",0.036506,0.000004,,,,true,
"CAN","identifier_field",0.085779,0.00006,0x0000000000000300,,,,
"CAN","control_field",0.085843,0.000012,,0x0000000000000008,,,
"CAN","data_field",0.085859,0.000036,,,,,0x00
"CAN","data_field",0.085899,0.000028,,,,,0x5A
"CAN","data_field",0.085931,0.000028,,,,,0x64
"CAN","data_field",0.085963,0.000028,,,,,0x5A
"CAN","data_field",0.085995,0.000032,,,,,0x00
"CAN","data_field",0.086031,0.000036,,,,,0x00
"CAN","data_field",0.086071,0.000032,,,,,0x00
"CAN","data_field",0.086111,0.000028,,,,,0x73
"CAN","crc_field",0.086143,0.000056,,,0x0000000000001628,,
"CAN","ack_field",0.086207,0.000004,,,,true,
"CAN","identifier_field",0.086259,0.000056,0x0000000000000301,,,,
"CAN","control_field",0.086319,0.000016,,0x0000000000000003,,,
"CAN","data_field",0.086339,0.000028,,,,,0x96
"CAN","data_field",0.086371,0.000032,,,,,0x03
"CAN","data_field",0.086407,0.000032,,,,,0x00
"CAN","crc_field",0.086443,0.00006,,,0x0000000000000AB9,,
"CAN","ack_field",0.086511,0.000004,,,,true,
"CAN","identifier_field",0.135783,0.00006,0x0000000000000300,,,,
"CAN","control_field",0.135847,0.000012,,0x0000000000000008,,,
"CAN","data_field",0.135863,0.000036,,,,,0x00
"CAN","data_field",0.135903,0.000028,,,,,0x5A
"CAN","data_field",0.135935,0.000028,,,,,0x64
"CAN","data_field",0.135967,0.000028,,,,,0x5A
"CAN","data_field",0.135999,0.000032,,,,,0x00
"CAN","data_field",0.136035,0.000036,,,,,0x00
"CAN","data_field",0.136075,0.000032,,,,,0x00
"CAN","data_field",0.136115,0.000032,,,,,0x04
"CAN","crc_field",0.136151,0.00006,,,0x00000000000040A9,,
"CAN","ack_field",0.136219,0.000004,,,,true,
"CAN","identifier_field",0.136271,0.000056,0x0000000000000301,,,,
"CAN","control_field",0.136331,0.000016,,0x0000000000000003,,,
"CAN","data_field",0.136351,0.000032,,,,,0x03
"CAN","data_field",0.136387,0.000032,,,,,0x04
"CAN","data_field",0.136423,0.000032,,,,,0x00
"CAN","crc_field",0.136463,0.000056,,,0x0000000000000A50,,
"CAN","ack_field",0.136527,0.000004,,,,true,
"CAN","identifier_field",0.185789,0.00006,0x0000000000000300,,,,
"CAN","control_field",0.185853,0.000012,,0x0000000000000008,,,
"CAN","data_field",0.185869,0.000036,,,,,0x00
"CAN","data_field",0.185909,0.000028,,,,,0x5A
"CAN","data_field",0.185941,0.000028,,,,,0x64
"CAN","data_field",0.185973,0.000028,,,,,0x5A
"CAN","data_field",0.186005,0.000032,,,,,0x00
"CAN","data_field",0.186041,0.000036,,,,,0x00
"CAN","data_field",0.186081,0.000032,,,,,0x00
"CAN","data_field",0.186121,0.000028,,,,,0x15
"CAN","crc_field",0.186153,0.000056,,,0x00000000000028A7,,
"CAN","ack_field",0.186217,0.000004,,,,true,
"CAN","identifier_field",0.186269,0.000056,0x0000000000000301,,,,
"CAN","control_field",0.186329,0.000016,,0x0000000000000003,,,
"CAN","data_field",0.186349,0.000028,,,,,0x54
"CAN","data_field",0.186381,0.000032,,,,,0x05
"CAN","data_field",0.186417,0.000032,,,,,0x00
"CAN","crc_field",0.186453,0.000056,,,0x000000000000342C,,
"CAN","ack_field",0.186517,0.000004,,,,true,
"CAN","identifier_field",0.235796,0.00006,0x0000000000000300,,,,
"CAN","control_field",0.23586,0.000012,,0x0000000000000008,,,
"CAN","data_field",0.235876,0.000036,,,,,0x00
"CAN","data_field",0.235916,0.000028,,,,,0x5A
"CAN","data_field",0.235948,0.000028,,,,,0x64
"CAN","data_field",0.23598,0.000028,,,,,0x5A
"CAN","data_field",0.236012,0.000032,,,,,0x00
"CAN","data_field",0.236048,0.000036,,,,,0x00
"CAN","data_field",0.236088,0.000032,,,,,0x00
"CAN","data_field",0.236128,0.000028,,,,,0x26
"CAN","crc_field",0.23616,0.000056,,,0x000000000000552C,,
"CAN","ack_field",0.236224,0.000004,,,,true,
"CAN","identifier_field",0.236277,0.000056,0x0000000000000301,,,,
"CAN","control_field",0.236337,0.000016,,0x0000000000000003,,,
"CAN","data_field",0.236357,0.000032,,,,,0xF5
"CAN","data_field",0.236393,0.000032,,,,,0x06
"CAN","data_field",0.236429,0.000032,,,,,0x00
"CAN","crc_field",0.236465,0.00006,,,0x0000000000004168,,
"CAN","ack_field",0.236533,0.000004,,,,true,
"CAN","identifier_field",0.286576,0.00006,0x0000000000000300,,,,
"CAN","control_field",0.28664,0.000012,,0x0000000000000008,,,
"CAN","data_field",0.286656,0.000036,,,,,0x00
"CAN","data_field",0.286696,0.000028,,,,,0x5A
"CAN","data_field",0.286728,0.000028,,,,,0x64
"CAN","data_field",0.28676,0.000028,,,,,0x5A
"CAN","data_field",0.286792,0.000032,,,,,0x00
"CAN","data_field",0.286828,0.000036,,,,,0x00
"CAN","data_field",0.286868,0.000032,,,,,0x00
"CAN","data_field",0.286908,0.000028,,,,,0x37
"CAN","crc_field",0.28694,0.000056,,,0x0000000000003D22,,
"CAN","ack_field",0.287004,0.000004,,,,true,
"CAN","identifier_field",0.287056,0.000056,0x0000000000000301,,,,
"CAN","control_field",0.287116,0.000016,,0x0000000000000003,,,
"CAN","data_field",0.287136,0.000028,,,,,0xB8
"CAN","data_field",0.287168,0.000032,,,,,0x07
"CAN","data_field",0.287204,0.000032,,,,,0x00
"CAN","crc_field",0.28724,0.000056,,,0x0000000000006ADB,,
"CAN","ack_field",0.287304,0.000004,,,,true,
"CAN","identifier_field",0.314294,0.000056,0x0000000000000404,,,,
"CAN","control_field",0.314358,0.000012,,0x0000000000000002,,,
"CAN","data_field",0.314374,0.000028,,,,,0x4A
"CAN","data_field",0.314406,0.000032,,,,,0x00
"CAN","crc_field",0.314442,0.00006,,,0x0000000000003A27,,
"CAN","ack_field",0.31451,0.000004,,,,true,
"CAN","identifier_field",0.335804,0.00006,0x0000000000000300,,,,
"CAN","control_field",0.335868,0.000012,,0x0000000000000008,,,
"CAN","data_field",0.335884,0.000036,,,,,0x00
"CAN","data_field",0.335924,0.000028,,,,,0x5A
"CAN","data_field",0.335956,0.000028,,,,,0x64
"CAN","data_field",0.335988,0.000028,,,,,0x5A
"CAN","data_field",0.33602,0.000032,,,,,0x00
"CAN","data_field",0.336056,0.000036,,,,,0x00
"CAN","data_field",0.336096,0.000032,,,,,0x00
"CAN","data_field",0.336136,0.000028,,,,,0xC8
"CAN","crc_field",0.336168,0.000056,,,0x0000000000003DB7,,
"CAN","ack_field",0.336232,0.000004,,,,true,
"CAN","identifier_field",0.336284,0.000056,0x0000000000000301,,,,
"CAN","control_field",0.336344,0.000016,,0x0000000000000003,,,
"CAN","data_field",0.336364,0.000032,,,,,0x80
"CAN","data_field",0.3364,0.000032,,,,,0x08
"CAN","data_field",0.336436,0.000036,,,,,0x00
"CAN","crc_field",0.336476,0.000056,,,0x0000000000007745,,
"CAN","ack_field",0.33654,0.000004,,,,true,
"CAN","identifier_field",0.338773,0.000056,0x0000000000000404,,,,
"CAN","control_field",0.338837,0.000012,,0x0000000000000002,,,
"CAN","data_field",0.338853,0.000032,,,,,0x02
"CAN","data_field",0.338889,0.000028,,,,,0x30
"CAN","crc_field",0.338921,0.00006,,,0x0000000000002964,,
"CAN","ack_field",0.338989,0.000004,,,,true,
"CAN","identifier_field",0.370025,0.000056,0x0000000000000404,,,,
"CAN","control_field",0.370089,0.000012,,0x0000000000000002,,,
"CAN","data_field",0.370105,0.000028,,,,,0x44
"CAN","data_field",0.370137,0.000032,,,,,0x00
"CAN","crc_field",0.370177,0.000064,,,0x000000000000503E,,
"CAN","ack_field",0.370249,0.000004,,,,true,
"CAN","identifier_field",0.385812,0.00006,0x0000000000000300,,,,
"CAN","control_field",0.385876,0.000012,,0x0000000000000008,,,
"CAN","data_field",0.385892,0.000036,,,,,0x00
"CAN","data_field",0.385932,0.000028,,,,,0x5A
"CAN","data_field",0.385964,0.000028,,,,,0x64
"CAN","data_field",0.385996,0.000028,,,,,0x5A
"CAN","data_field",0.386028,0.000032,,,,,0x00
"CAN","data_field",0.386064,0.000036,,,,,0x00
"CAN","data_field",0.386104,0.000032,,,,,0x00
"CAN","data_field",0.386144,0.000028,,,,,0xD9
"CAN","crc_field",0.386176,0.000056,,,0x00000000000055B9,,
"CAN","ack_field",0.38624,0.000004,,,,true,
"CAN","identifier_field",0.386292,0.000056,0x0000000000000301,,,,
"CAN","control_field",0.386352,0.000016,,0x0000000000000003,,,
"CAN","data_field",0.386372,0.000028,,,,,0x88
"CAN","data_field",0.386404,0.000032,,,,,0x09
"CAN","data_field",0.38644,0.000032,,,,,0x00
"CAN","crc_field",0.386476,0.000064,,,0x000000000000603E,,
"CAN","ack_field",0.386548,0.000004,,,,true,
"CAN","identifier_field",0.401286,0.000056,0x0000000000000404,,,,
"CAN","control_field",0.40135,0.000012,,0x0000000000000002,,,
"CAN","data_field",0.401366,0.000032,,,,,0x01
"CAN","data_field",0.401402,0.000032,,,,,0x00
"CAN","crc_field",0.401438,0.000056,,,0x000000000000562E,,
"CAN","ack_field",0.401502,0.000004,,,,true,
"CAN","identifier_field",0.432529,0.000056,0x0000000000000404,,,,
"CAN","control_field",0.432593,0.000012,,0x0000000000000002,,,
"CAN","data_field",0.432609,0.000028,,,,,0xA3
"CAN","data_field",0.432641,0.000032,,,,,0x01
"CAN","crc_field",0.432677,0.000056,,,0x0000000000000AA6,,
"CAN","ack_field",0.432741,0.000004,,,,true,
"CAN","identifier_field",0.435818,0.00006,0x0000000000000300,,,,
"CAN","control_field",0.435882,0.000012,,0x0000000000000008,,,
"CAN","data_field",0.435898,0.000036,,,,,0x00
"CAN","data_field",0.435938,0.000028,,,,,0x5A
"CAN","data_field",0.43597,0.000028,,,,,0x64
"CAN","data_field",0.436002,0.000028,,,,,0x5A
"CAN","data_field",0.436034,0.000032,,,,,0x00
"CAN","data_field",0.43607,0.000036,,,,,0x00
"CAN","data_field",0.43611,0.000032,,,,,0x00
"CAN","data_field",0.43615,0.000028,,,,,0xEA
"CAN","crc_field",0.436182,0.00006,,,0x0000000000002832,,
"CAN","ack_field",0.43625,0.000004,,,,true,
"CAN","identifier_field",0.436302,0.000056,0x0000000000000301,,,,
"CAN","control_field",0.436362,0.000016,,0x0000000000000003,,,
"CAN","data_field",0.436382,0.000032,,,,,0xC6
"CAN","data_field",0.436418,0.000032,,,,,0x0A
"CAN","data_field",0.436454,0.000032,,,,,0x00
"CAN","crc_field",0.43649,0.00006,,,0x00000000000053FD,,
"CAN","ack_field",0.436558,0.000004,,,,true,
"CAN","identifier_field",0.469202,0.000056,0x0000000000000404,,,,
"CAN","control_field",0.469266,0.000012,,0x0000000000000002,,,
"CAN","data_field",0.469282,0.000028,,,,,0x20
"CAN","data_field",0.469318,0.000032,,,,,0x00
"CAN","crc_field",0.469354,0.00006,,,0x0000000000007EC6,,
"CAN","ack_field",0.469422,0.000004,,,,true,
"CAN","identifier_field",0.485821,0.00006,0x0000000000000300,,,,
"CAN","control_field",0.485885,0.000012,,0x0000000000000008,,,
"CAN","data_field",0.485901,0.000036,,,,,0x00
"CAN","data_field",0.485941,0.000028,,,,,0x5A
"CAN","data_field",0.485973,0.000028,,,,,0x64
"CAN","data_field",0.486005,0.000028,,,,,0x5A
"CAN","data_field",0.486037,0.000032,,,,,0x00
"CAN","data_field",0.486073,0.000036,,,,,0x00
"CAN","data_field",0.486113,0.000032,,,,,0x00
"CAN","data_field",0.486153,0.000032,,,,,0xFB
"CAN","crc_field",0.486189,0.00006,,,0x000000000000403C,,
"CAN","ack_field",0.486257,0.000004,,,,true,
"CAN","identifier_field",0.486309,0.000056,0x0000000000000301,,,,
"CAN","control_field",0.486369,0.000016,,0x0000000000000003,,,
"CAN","data_field",0.486389,0.000028,,,,,0x43
"CAN","data_field",0.486421,0.000028,,,,,0x0B
"CAN","data_field",0.486453,0.000032,,,,,0x00
"CAN","crc_field",0.486489,0.000056,,,0x00000000000023D1,,
"CAN","ack_field",0.486553,0.000004,,,,true,
"CAN","identifier_field",0.49503,0.000056,0x0000000000000404,,,,
"CAN","control_field",0.495094,0.000012,,0x0000000000000002,,,
"CAN","data_field",0.49511,0.000028,,,,,0x21
"CAN","data_field",0.495142,0.000032,,,,,0x00
"CAN","crc_field",0.495178,0.000056,,,0x0000000000003AE0,,
"CAN","ack_field",0.495246,0.000004,,,,true,
"CAN","identifier_field",0.52629,0.000056,0x0000000000000404,,,,
"CAN","control_field",0.526354,0.000012,,0x0000000000000002,,,
"CAN","data_field",0.52637,0.000028,,,,,0x22
"CAN","data_field",0.526402,0.000032,,,,,0x00
"CAN","crc_field",0.526438,0.00006,,,0x0000000000003313,,
"CAN","ack_field",0.526506,0.000004,,,,true,
"CAN","identifier_field",0.535827,0.00006,0x0000000000000300,,,,
"CAN","control_field",0.535891,0.000012,,0x0000000000000008,,,
"CAN","data_field",0.535907,0.000036,,,,,0x00
"CAN","data_field",0.535947,0.000028,,,,,0x5A
"CAN","data_field",0.535979,0.000028,,,,,0x64
"CAN","data_field",0.536011,0.000028,,,,,0x5A
"CAN","data_field",0.536043,0.000032,,,,,0x00
"CAN","data_field",0.536079,0.000036,,,,,0x00
"CAN","data_field",0.536119,0.000032,,,,,0x00
"CAN","data_field",0.536159,0.000028,,,,,0x8C
"CAN","crc_field",0.536191,0.000056,,,0x00000000000016BD,,
"CAN","ack_field",0.536255,0.000004,,,,true,
"CAN","identifier_field",0.536307,0.000056,0x0000000000000301,,,,
"CAN","control_field",0.536367,0.000016,,0x0000000000000003,,,
"CAN","data_field",0.536387,0.000028,,,,,0xB5
"CAN","data_field",0.536419,0.000028,,,,,0x0C
"CAN","data_field",0.536451,0.000032,,,,,0x00
"CAN","crc_field",0.536491,0.00006,,,0x00000000000072FC,,
"CAN","ack_field",0.536559,0.000004,,,,true,
"CAN","identifier_field",0.557534,0.000056,0x0000000000000404,,,,
"CAN","control_field",0.557598,0.000012,,0x0000000000000002,,,
"CAN","data_field",0.557614,0.000028,,,,,0x23
"CAN","data_field",0.557646,0.000032,,,,,0x00
"CAN","crc_field",0.557682,0.000056,,,0x0000000000007735,,
"CAN","ack_field",0.557746,0.000004,,,,true,
"CAN","identifier_field",0.585831,0.00006,0x0000000000000300,,,,
"CAN","control_field",0.585895,0.000012,,0x0000000000000008,,,
"CAN","data_field",0.585911,0.000036,,,,,0x00
"CAN","data_field",0.585951,0.000028,,,,,0x5A
"CAN","data_field",0.585983,0.000028,,,,,0x64
"CAN","data_field",0.586015,0.000028,,,,,0x5A
"CAN","data_field",0.586047,0.000032,,,,,0x00
"CAN","data_field",0.586083,0.000036,,,,,0x00
"CAN","data_field",0.586123,0.000032,,,,,0x00
"CAN","data_field",0.586163,0.000028,,,,,0x9D
"CAN","crc_field",0.586195,0.00006,,,0x0000000000007EB3,,
"CAN","ack_field",0.586263,0.000004,,,,true,
"CAN","identifier_field",0.586315,0.000056,0x0000000000000301,,,,
"CAN","control_field",0.586375,0.000016,,0x0000000000000003,,,
"CAN","data_field",0.586395,0.000028,,,,,0x4E
"CAN","data_field",0.586427,0.000032,,,,,0x0D
"CAN","data_field",0.586463,0.000032,,,,,0x00
"CAN","crc_field",0.586499,0.00006,,,0x000000000000581C,,
"CAN","ack_field",0.586567,0.000004,,,,true,
"CAN","identifier_field",0.588811,0.000056,0x0000000000000404,,,,
"CAN","control_field",0.588875,0.000012,,0x0000000000000002,,,
"CAN","data_field",0.588891,0.000028,,,,,0x24
"CAN","data_field",0.588923,0.000032,,,,,0x00
"CAN","crc_field",0.588963,0.000064,,,0x00000000000020F5,,
"CAN","ack_field",0.589035,0.000004,,,,true,
"CAN","identifier_field",0.620155,0.000056,0x0000000000000404,,,,
"CAN","control_field",0.620219,0.000012,,0x0000000000000002,,,
"CAN","data_field",0.620235,0.000028,,,,,0x25
"CAN","data_field",0.620267,0.000032,,,,,0x00
"CAN","crc_field",0.620303,0.000056,,,0x00000000000064D3,,
"CAN","ack_field",0.620367,0.000004,,,,true,
"CAN","identifier_field",0.635837,0.00006,0x0000000000000300,,,,
"CAN","control_field",0.635901,0.000012,,0x0000000000000008,,,
"CAN","data_field",0.635917,0.000036,,,,,0x00
"CAN","data_field",0.635957,0.000028,,,,,0x5A
"CAN","data_field",0.635989,0.000028,,,,,0x64
"CAN","data_field",0.636021,0.000028,,,,,0x5A
"CAN","data_field",0.636053,0.000032,,,,,0x00
"CAN","data_field",0.636089,0.000036,,,,,0x00
"CAN","data_field",0.636129,0.000032,,,,,0x00
"CAN","data_field",0.636169,0.000028,,,,,0xAE
"CAN","crc_field",0.636201,0.00006,,,0x0000000000000338,,
"CAN","ack_field",0.636269,0.000004,,,,true,
"CAN","identifier_field",0.636321,0.000056,0x0000000000000301,,,,
"CAN","control_field",0.636381,0.000016,,0x0000000000000003,,,
"CAN","data_field",0.636401,0.000028,,,,,0x1D
"CAN","data_field",0.636433,0.000028,,,,,0x0E
"CAN","data_field",0.636465,0.000032,,,,,0x00
"CAN","crc_field",0.636501,0.00006,,,0x00000000000060D7,,
"CAN","ack_field",0.636569,0.000004,,,,true,
"CAN","identifier_field",0.658179,0.000056,0x0000000000000404,,,,
"CAN","control_field",0.658243,0.000012,,0x0000000000000002,,,
"CAN","data_field",0.658259,0.000028,,,,,0x26
"CAN","data_field",0.658291,0.000032,,,,,0x00
"CAN","crc_field",0.658327,0.000056,,,0x0000000000006D20,,
"CAN","ack_field",0.658395,0.000004,,,,true,
"CAN","identifier_field",0.682539,0.000056,0x0000000000000404,,,,
"CAN","control_field",0.682603,0.000012,,0x0000000000000002,,,
"CAN","data_field",0.682619,0.000028,,,,,0x27
"CAN","data_field",0.682651,0.000032,,,,,0x00
"CAN","crc_field",0.682687,0.00006,,,0x0000000000002906,,
"CAN","ack_field",0.682755,0.000004,,,,true,
"CAN","identifier_field",0.68584,0.00006,0x0000000000000300,,,,
"CAN","control_field",0.685904,0.000012,,0x0000000000000008,,,
"CAN","data_field",0.68592,0.000036,,,,,0x00
"CAN","data_field",0.68596,0.000028,,,,,0x5A
"CAN","data_field",0.685992,0.000028,,,,,0x64
"CAN","data_field",0.686024,0.000028,,,,,0x5A
"CAN","data_field",0.686056,0.000032,,,,,0x00
"CAN","data_field",0.686092,0.000036,,,,,0x00
"CAN","data_field",0.686132,0.000032,,,,,0x00
"CAN","data_field",0.686172,0.000032,,,,,0xBF
"CAN","crc_field",0.686208,0.000056,,,0x0000000000006B36,,
"CAN","ack_field",0.686272,0.000004,,,,true,
"CAN","identifier_field",0.686324,0.000056,0x0000000000000301,,,,
"CAN","control_field",0.686384,0.000016,,0x0000000000000003,,,
"CAN","data_field",0.686404,0.000032,,,,,0xE8
"CAN","data_field",0.68644,0.000032,,,,,0x0F
"CAN","data_field",0.686476,0.000032,,,,,0x00
"CAN","crc_field",0.686512,0.000056,,,0x00000000000077B9,,
"CAN","ack_field",0.686576,0.000004,,,,true,
"CAN","identifier_field",0.713795,0.000056,0x0000000000000404,,,,
"CAN","control_field",0.713859,0.000012,,0x0000000000000002,,,
"CAN","data_field",0.713875,0.000028,,,,,0x4C
"CAN","data_field",0.713907,0.000032,,,,,0x00
"CAN","crc_field",0.713947,0.00006,,,0x00000000000029C1,,
"CAN","ack_field",0.714015,0.000004,,,,true,
"CAN","identifier_field",0.735847,0.00006,0x0000000000000300,,,,
"CAN","control_field",0.735911,0.000012,,0x0000000000000008,,,
"CAN","data_field",0.735927,0.000036,,,,,0x00
"CAN","data_field",0.735967,0.000028,,,,,0x5A
"CAN","data_field",0.735999,0.000028,,,,,0x64
"CAN","data_field",0.736031,0.000028,,,,,0x5A
"CAN","data_field",0.736063,0.000032,,,,,0x00
"CAN","data_field",0.736099,0.000036,,,,,0x00
"CAN","data_field",0.736139,0.000032,,,,,0x00
"CAN","data_field",0.736179,0.000032,,,,,0x40
"CAN","crc_field",0.736215,0.000056,,,0x0000000000006BA3,,
"CAN","ack_field",0.736279,0.000004,,,,true,
"CAN","identifier_field",0.736331,0.000056,0x0000000000000301,,,,
"CAN","control_field",0.736391,0.000016,,0x0000000000000003,,,
"CAN","data_field",0.736411,0.000032,,,,,0xE2
"CAN","data_field",0.736447,0.000032,,,,,0x00
"CAN","data_field",0.736483,0.000036,,,,,0x00
"CAN","crc_field",0.736523,0.000056,,,0x0000000000002F6A,,
"CAN","ack_field",0.736587,0.000004,,,,true,
"CAN","identifier_field",0.745044,0.000056,0x0000000000000404,,,,
"CAN","control_field",0.745108,0.000012,,0x0000000000000002,,,
"CAN","data_field",0.745124,0.000028,,,,,0x46
"CAN","data_field",0.745156,0.000032,,,,,0x00
"CAN","crc_field",0.745192,0.00006,,,0x0000000000001DEB,,
"CAN","ack_field",0.74526,0.000004,,,,true,
"CAN","identifier_field",0.776468,0.000056,0x0000000000000404,,,,
"CAN","control_field",0.776532,0.000012,,0x0000000000000002,,,
"CAN","data_field",0.776548,0.000028,,,,,0x4D
"CAN","data_field",0.77658,0.000032,,,,,0x00
"CAN","crc_field",0.776616,0.000056,,,0x0000000000006DE7,,
"CAN","ack_field",0.77668,0.000004,,,,true,
"CAN","identifier_field",0.785854,0.00006,0x0000000000000300,,,,
"CAN","control_field",0.785918,0.000012,,0x0000000000000008,,,
"CAN","data_field",0.785934,0.000036,,,,,0x00
