name,type,start_time,duration,"identifier","extended","num_data_bytes","RemoteFrame","remote_frame","crc","ack","data"
"CAN","identifier_field",0.047123,0.00006,0x0000000000000300,,,,,,,
"CAN","control_field",0.047187,0.000012,,,0x0000000000000008,,,,,
"CAN","data_field",0.047203,0.000032,,,,,,,,0x03
"CAN","data_field",0.047239,0.000028,,,,,,,,0x5A
"CAN","data_field",0.047271,0.000028,,,,,,,,0x64
"CAN","data_field",0.047303,0.000028,,,,,,,,0x5A
"CAN","data_field",0.047335,0.000028,,,,,,,,0x64
"CAN","data_field",0.047367,0.000032,,,,,,,,0x00
"CAN","data_field",0.047407,0.000028,,,,,,,,0x64
"CAN","data_field",0.047439,0.000028,,,,,,,,0xAF
"CAN","crc_field",0.047471,0.000056,,,,,,0x0000000000003A77,,
"CAN","ack_field",0.047535,0.000004,,,,,,,true,
"CAN","identifier_field",0.047587,0.000056,0x0000000000000301,,,,,,,
"CAN","control_field",0.047647,0.000016,,,0x0000000000000003,,,,,
"CAN","data_field",0.047667,0.000032,,,,,,,,0xE8
"CAN","data_field",0.047703,0.000032,,,,,,,,0x0F
"CAN","data_field",0.047739,0.000032,,,,,,,,0x00
"CAN","crc_field",0.047775,0.000056,,,,,,0x00000000000077B9,,
"CAN","ack_field",0.047839,0.000004,,,,,,,true,
"CAN","identifier_field",0.097129,0.00006,0x0000000000000300,,,,,,,
"CAN","control_field",0.097193,0.000012,,,0x0000000000000008,,,,,
"CAN","data_field",0.097209,0.000032,,,,,,,,0x03
"CAN","data_field",0.097245,0.000028,,,,,,,,0x5A
"CAN","data_field",0.097277,0.000028,,,,,,,,0x64
"CAN","data_field",0.097309,0.000028,,,,,,,,0x5A
"CAN","data_field",0.097341,0.000028,,,,,,,,0x64
"CAN","data_field",0.097373,0.000032,,,,,,,,0x00
"CAN","data_field",0.097413,0.000028,,,,,,,,0x64
"CAN","data_field",0.097445,0.000028,,,,,,,,0x30
"CAN","crc_field",0.097477,0.000064,,,,,,0x0000000000001209,,
"CAN","ack_field",0.097549,0.000004,,,,,,,true,
"CAN","identifier_field",0.097601,0.000056,0x0000000000000301,,,,,,,
"CAN","control_field",0.097661,0.000016,,,0x0000000000000003,,,,,
"CAN","data_field",0.097681,0.000032,,,,,,,,0xE2
"CAN","data_field",0.097717,0.000032,,,,,,,,0x00
"CAN","data_field",0.097753,0.000036,,,,,,,,0x00
"CAN","crc_field",0.097793,0.000056,,,,,,0x0000000000002F6A,,
"CAN","ack_field",0.097857,0.000004,,,,,,,true,
"CAN","identifier_field",0.147134,0.00006,0x0000000000000300,,,,,,,
"CAN","control_field",0.147198,0.000012,,,0x0000000000000008,,,,,
"CAN","data_field",0.147214,0.000032,,,,,,,,0x03
"CAN","data_field",0.14725,0.000028,,,,,,,,0x5A
"CAN","data_field",0.147282,0.000028,,,,,,,,0x64
"CAN","data_field",0.147314,0.000028,,,,,,,,0x5A
"CAN","data_field",0.147346,0.000028,,,,,,,,0x64
"CAN","data_field",0.147378,0.000032,,,,,,,,0x00
"CAN","data_field",0.147418,0.000028,,,,,,,,0x64
"CAN","data_field",0.14745,0.000028,,,,,,,,0x21
"CAN","crc_field",0.147482,0.000064,,,,,,0x0000000000007A07,,
"CAN","ack_field",0.147554,0.000004,,,,,,,true,
"CAN","identifier_field",0.147606,0.000056,0x0000000000000301,,,,,,,
"CAN","control_field",0.147666,0.000016,,,0x0000000000000003,,,,,
"CAN","data_field",0.147686,0.000028,,,,,,,,0xB3
"CAN","data_field",0.147718,0.000032,,,,,,,,0x01
"CAN","data_field",0.147754,0.000032,,,,,,,,0x00
"CAN","crc_field",0.14779,0.00006,,,,,,0x0000000000007FC5,,
"CAN","ack_field",0.147858,0.000004,,,,,,,true,
"CAN","identifier_field",0.197137,0.00006,0x0000000000000300,,,,,,,
"CAN","control_field",0.197201,0.000012,,,0x0000000000000008,,,,,
"CAN","data_field",0.197217,0.000032,,,,,,,,0x03
"CAN","data_field",0.197253,0.000028,,,,,,,,0x5A
"CAN","data_field",0.197285,0.000028,,,,,,,,0x64
"CAN","data_field",0.197317,0.000028,,,,,,,,0x5A
"CAN","data_field",0.197349,0.000028,,,,,,,,0x64
"CAN","data_field",0.197381,0.000032,,,,,,,,0x00
"CAN","data_field",0.197421,0.000028,,,,,,,,0x64
"CAN","data_field",0.197453,0.000028,,,,,,,,0x32
"CAN","crc_field",0.197485,0.000056,,,,,,0x0000000000005CA2,,
"CAN","ack_field",0.197549,0.000004,,,,,,,true,
"CAN","identifier_field",0.197601,0.000056,0x0000000000000301,,,,,,,
"CAN","control_field",0.197661,0.000016,,,0x0000000000000003,,,,,
"CAN","data_field",0.197681,0.000028,,,,,,,,0x6B
"CAN","data_field",0.197713,0.000032,,,,,,,,0x02
"CAN","data_field",0.197749,0.000032,,,,,,,,0x00
"CAN","crc_field",0.197785,0.000056,,,,,,0x0000000000004E8A,,
"CAN","ack_field",0.197849,0.000004,,,,,,,true,
"CAN","identifier_field",0.247142,0.00006,0x0000000000000300,,,,,,,
"CAN","control_field",0.247206,0.000012,,,0x0000000000000008,,,,,
"CAN","data_field",0.247222,0.000032,,,,,,,,0x03
"CAN","data_field",0.247258,0.000028,,,,,,,,0x5A
"CAN","data_field",0.24729,0.000028,,,,,,,,0x64
"CAN","data_field",0.247322,0.000028,,,,,,,,0x5A
"CAN","data_field",0.247354,0.000028,,,,,,,,0x64
"CAN","data_field",0.247386,0.000032,,,,,,,,0x00
"CAN","data_field",0.247426,0.000028,,,,,,,,0x64
"CAN","data_field",0.247458,0.000028,,,,,,,,0x23
"CAN","crc_field",0.24749,0.000056,,,,,,0x00000000000034AC,,
"CAN","ack_field",0.247554,0.000004,,,,,,,true,
"CAN","identifier_field",0.247606,0.000056,0x0000000000000301,,,,,,,
"CAN","control_field",0.247666,0.000016,,,0x0000000000000003,,,,,
"CAN","data_field",0.247686,0.000028,,,,,,,,0x96
"CAN","data_field",0.247718,0.000032,,,,,,,,0x03
"CAN","data_field",0.247754,0.000032,,,,,,,,0x00
"CAN","crc_field",0.24779,0.00006,,,,,,0x0000000000000AB9,,
"CAN","ack_field",0.247858,0.000004,,,,,,,true,
"CAN","identifier_field",0.297149,0.00006,0x0000000000000300,,,,,,,
"CAN","control_field",0.297213,0.000012,,,0x0000000000000008,,,,,
"CAN","data_field",0.297229,0.000032,,,,,,,,0x03
"CAN","data_field",0.297265,0.000028,,,,,,,,0x5A
"CAN","data_field",0.297297,0.000028,,,,,,,,0x64
"CAN","data_field",0.297329,0.000028,,,,,,,,0x5A
"CAN","data_field",0.297361,0.000028,,,,,,,,0x64
"CAN","data_field",0.297393,0.000032,,,,,,,,0x00
"CAN","data_field",0.297433,0.000028,,,,,,,,0x64
"CAN","data_field",0.297465,0.000028,,,,,,,,0x34
"CAN","crc_field",0.297497,0.000056,,,,,,0x0000000000004AC6,,
"CAN","ack_field",0.297561,0.000004,,,,,,,true,
"CAN","identifier_field",0.297613,0.000056,0x0000000000000301,,,,,,,
"CAN","control_field",0.297673,0.000016,,,0x0000000000000003,,,,,
"CAN","data_field",0.297693,0.000032,,,,,,,,0x03
"CAN","data_field",0.297729,0.000032,,,,,,,,0x04
"CAN","data_field",0.297765,0.000032,,,,,,,,0x00
"CAN","crc_field",0.297805,0.000056,,,,,,0x0000000000000A50,,
"CAN","ack_field",0.297869,0.000004,,,,,,,true,
"CAN","identifier_field",0.347155,0.00006,0x0000000000000300,,,,,,,
"CAN","control_field",0.347219,0.000012,,,0x0000000000000008,,,,,
"CAN","data_field",0.347235,0.000032,,,,,,,,0x03
"CAN","data_field",0.347271,0.000028,,,,,,,,0x5A
"CAN","data_field",0.347303,0.000028,,,,,,,,0x64
"CAN","data_field",0.347335,0.000028,,,,,,,,0x5A
"CAN","data_field",0.347367,0.000028,,,,,,,,0x64
"CAN","data_field",0.347399,0.000032,,,,,,,,0x00
"CAN","data_field",0.347439,0.000028,,,,,,,,0x64
"CAN","data_field",0.347471,0.000028,,,,,,,,0x25
"CAN","crc_field",0.347503,0.000056,,,,,,0x00000000000022C8,,
"CAN","ack_field",0.347567,0.000004,,,,,,,true,
"CAN","identifier_field",0.347619,0.000056,0x0000000000000301,,,,,,,
"CAN","control_field",0.347679,0.000016,,,0x0000000000000003,,,,,
"CAN","data_field",0.347699,0.000028,,,,,,,,0x54
"CAN","data_field",0.347731,0.000032,,,,,,,,0x05
"CAN","data_field",0.347767,0.000032,,,,,,,,0x00
"CAN","crc_field",0.347803,0.000056,,,,,,0x000000000000342C,,
"CAN","ack_field",0.347867,0.000004,,,,,,,true,
"CAN","identifier_field",0.397158,0.00006,0x0000000000000300,,,,,,,
"CAN","control_field",0.397222,0.000012,,,0x0000000000000008,,,,,
"CAN","data_field",0.397238,0.000032,,,,,,,,0x03
"CAN","data_field",0.397274,0.000028,,,,,,,,0x5A
"CAN","data_field",0.397306,0.000028,,,,,,,,0x64
"CAN","data_field",0.397338,0.000028,,,,,,,,0x5A
"CAN","data_field",0.39737,0.000028,,,,,,,,0x64
"CAN","data_field",0.397402,0.000032,,,,,,,,0x00
"CAN","data_field",0.397442,0.000028,,,,,,,,0x64
"CAN","data_field",0.397474,0.000028,,,,,,,,0x36
"CAN","crc_field",0.397506,0.00006,,,,,,0x000000000000046D,,
"CAN","ack_field",0.397574,0.000004,,,,,,,true,
"CAN","identifier_field",0.397626,0.000056,0x0000000000000301,,,,,,,
"CAN","control_field",0.397686,0.000016,,,0x0000000000000003,,,,,
"CAN","data_field",0.397706,0.000032,,,,,,,,0xF5
"CAN","data_field",0.397742,0.000032,,,,,,,,0x06
"CAN","data_field",0.397778,0.000032,,,,,,,,0x00
"CAN","crc_field",0.397814,0.00006,,,,,,0x0000000000004168,,
"CAN","ack_field",0.397882,0.000004,,,,,,,true,
"CAN","identifier_field",0.447165,0.00006,0x0000000000000300,,,,,,,
"CAN","control_field",0.447229,0.000012,,,0x0000000000000008,,,,,
"CAN","data_field",0.447245,0.000032,,,,,,,,0x03
"CAN","data_field",0.447281,0.000028,,,,,,,,0x5A
"CAN","data_field",0.447313,0.000028,,,,,,,,0x64
"CAN","data_field",0.447345,0.000028,,,,,,,,0x5A
"CAN","data_field",0.447377,0.000028,,,,,,,,0x64
"CAN","data_field",0.447409,0.000032,,,,,,,,0x00
"CAN","data_field",0.447449,0.000028,,,,,,,,0x64
"CAN","data_field",0.447481,0.000028,,,,,,,,0x27
"CAN","crc_field",0.447513,0.00006,,,,,,0x0000000000006C63,,
"CAN","ack_field",0.447581,0.000004,,,,,,,true,
"CAN","identifier_field",0.447633,0.000056,0x0000000000000301,,,,,,,
"CAN","control_field",0.447693,0.000016,,,0x0000000000000003,,,,,
"CAN","data_field",0.447713,0.000028,,,,,,,,0xB8
"CAN","data_field",0.447745,0.000032,,,,,,,,0x07
"CAN","data_field",0.447781,0.000032,,,,,,,,0x00
"CAN","crc_field",0.447817,0.000056,,,,,,0x0000000000006ADB,,
"CAN","ack_field",0.447881,0.000004,,,,,,,true,
"CAN","identifier_field",0.497172,0.00006,0x0000000000000300,,,,,,,
"CAN","control_field",0.497236,0.000012,,,0x0000000000000008,,,,,
"CAN","data_field",0.497252,0.000032,,,,,,,,0x03
"CAN","data_field",0.497288,0.000028,,,,,,,,0x5A
"CAN","data_field",0.49732,0.000028,,,,,,,,0x64
"CAN","data_field",0.497352,0.000028,,,,,,,,0x5A
"CAN","data_field",0.497384,0.000028,,,,,,,,0x64
"CAN","data_field",0.497416,0.000032,,,,,,,,0x00
"CAN","data_field",0.497456,0.000028,,,,,,,,0x64
"CAN","data_field",0.497488,0.000028,,,,,,,,0xB8
"CAN","crc_field",0.49752,0.00006,,,,,,0x000000000000441D,,
"CAN","ack_field",0.497588,0.000004,,,,,,,true,
"CAN","identifier_field",0.49764,0.000056,0x0000000000000301,,,,,,,
"CAN","control_field",0.4977,0.000016,,,0x0000000000000003,,,,,
"CAN","data_field",0.49772,0.000032,,,,,,,,0x80
"CAN","data_field",0.497756,0.000032,,,,,,,,0x08
"CAN","data_field",0.497792,0.000036,,,,,,,,0x00
"CAN","crc_field",0.497832,0.000056,,,,,,0x0000000000007745,,
"CAN","ack_field",0.497896,0.000004,,,,,,,true,
"CAN","identifier_field",0.547175,0.00006,0x0000000000000300,,,,,,,
"CAN","control_field",0.547239,0.000012,,,0x0000000000000008,,,,,
"CAN","data_field",0.547255,0.000032,,,,,,,,0x03
"CAN","data_field",0.547291,0.000028,,,,,,,,0x5A
"CAN","data_field",0.547323,0.000028,,,,,,,,0x64
"CAN","data_field",0.547355,0.000028,,,,,,,,0x5A
"CAN","data_field",0.547387,0.000028,,,,,,,,0x64
"CAN","data_field",0.547419,0.000032,,,,,,,,0x00
"CAN","data_field",0.547459,0.000028,,,,,,,,0x64
"CAN","data_field",0.547491,0.000028,,,,,,,,0xA9
"CAN","crc_field",0.547523,0.00006,,,,,,0x0000000000002C13,,
"CAN","ack_field",0.547591,0.000004,,,,,,,true,
"CAN","identifier_field",0.547643,0.000056,0x0000000000000301,,,,,,,
"CAN","control_field",0.547703,0.000016,,,0x0000000000000003,,,,,
"CAN","data_field",0.547723,0.000028,,,,,,,,0x88
"CAN","data_field",0.547755,0.000032,,,,,,,,0x09
"CAN","data_field",0.547791,0.000032,,,,,,,,0x00
"CAN","crc_field",0.547827,0.000064,,,,,,0x000000000000603E,,
"CAN","ack_field",0.547899,0.000004,,,,,,,true,
"CAN","identifier_field",0.597181,0.00006,0x0000000000000300,,,,,,,
"CAN","control_field",0.597245,0.000012,,,0x0000000000000008,,,,,
"CAN","data_field",0.597261,0.000032,,,,,,,,0x03
"CAN","data_field",0.597297,0.000028,,,,,,,,0x5A
"CAN","data_field",0.597329,0.000028,,,,,,,,0x64
"CAN","data_field",0.597361,0.000028,,,,,,,,0x5A
"CAN","data_field",0.597393,0.000028,,,,,,,,0x64
"CAN","data_field",0.597425,0.000032,,,,,,,,0x00
"CAN","data_field",0.597465,0.000028,,,,,,,,0x64
"CAN","data_field",0.597497,0.000028,,,,,,,,0xBA
"CAN","crc_field",0.597529,0.000056,,,,,,0x0000000000000AB6,,
"CAN","ack_field",0.597593,0.000004,,,,,,,true,
"CAN","identifier_field",0.597645,0.000056,0x0000000000000301,,,,,,,
"CAN","control_field",0.597705,0.000016,,,0x0000000000000003,,,,,
"CAN","data_field",0.597725,0.000032,,,,,,,,0xC6
"CAN","data_field",0.597761,0.000032,,,,,,,,0x0A
"CAN","data_field",0.597797,0.000032,,,,,,,,0x00
"CAN","crc_field",0.597833,0.00006,,,,,,0x00000000000053FD,,
"CAN","ack_field",0.597901,0.000004,,,,,,,true,
"CAN","identifier_field",0.620613,0.000056,0x00000000000003DF,,,,,,,
"CAN","control_field",0.620673,0.000012,,,0x000000000000000E,,,,,
"CAN","data_field",0.620689,0.000032,,,,,,,,0xFB
"CAN","identifier_field",0.647184,0.00006,0x0000000000000300,,,,,,,
"CAN","control_field",0.647248,0.000012,,,0x0000000000000008,,,,,
"CAN","data_field",0.647264,0.000032,,,,,,,,0x03
"CAN","data_field",0.6473,0.000028,,,,,,,,0x5A
"CAN","data_field",0.647332,0.000028,,,,,,,,0x64
"CAN","data_field",0.647364,0.000028,,,,,,,,0x5A
"CAN","data_field",0.647396,0.000028,,,,,,,,0x64
"CAN","data_field",0.647428,0.000032,,,,,,,,0x00
"CAN","data_field",0.647468,0.000028,,,,,,,,0x64
"CAN","data_field",0.6475,0.000028,,,,,,,,0xAB
"CAN","crc_field",0.647532,0.000056,,,,,,0x00000000000062B8,,
"CAN","ack_field",0.647596,0.000004,,,,,,,true,
"CAN","identifier_field",0.647648,0.000056,0x0000000000000301,,,,,,,
"CAN","control_field",0.647708,0.000016,,,0x0000000000000003,,,,,
"CAN","data_field",0.647728,0.000028,,,,,,,,0x43
"CAN","data_field",0.64776,0.000028,,,,,,,,0x0B
"CAN","data_field",0.647792,0.000032,,,,,,,,0x00
"CAN","crc_field",0.647828,0.000056,,,,,,0x00000000000023D1,,
"CAN","ack_field",0.647892,0.000004,,,,,,,true,
"CAN","identifier_field",0.69719,0.00006,0x0000000000000300,,,,,,,
"CAN","control_field",0.697254,0.000012,,,0x0000000000000008,,,,,
"CAN","data_field",0.69727,0.000032,,,,,,,,0x03
"CAN","data_field",0.697306,0.000028,,,,,,,,0x5A
"CAN","data_field",0.697338,0.000028,,,,,,,,0x64
"CAN","data_field",0.69737,0.000028,,,,,,,,0x5A
"CAN","data_field",0.697402,0.000028,,,,,,,,0x64
"CAN","data_field",0.697434,0.000032,,,,,,,,0x00
"CAN","data_field",0.697474,0.000028,,,,,,,,0x64
"CAN","data_field",0.697506,0.000028,,,,,,,,0xBC
"CAN","crc_field",0.697538,0.000056,,,,,,0x0000000000001CD2,,
"CAN","ack_field",0.697602,0.000004,,,,,,,true,
"CAN","identifier_field",0.697654,0.000056,0x0000000000000301,,,,,,,
"CAN","control_field",0.697714,0.000016,,,0x0000000000000003,,,,,
"CAN","data_field",0.697734,0.000028,,,,,,,,0xB5
"CAN","data_field",0.697766,0.000028,,,,,,,,0x0C
"CAN","data_field",0.697798,0.000032,,,,,,,,0x00
"CAN","crc_field",0.697838,0.00006,,,,,,0x00000000000072FC,,
"CAN","ack_field",0.697906,0.000004,,,,,,,true,
"CAN","identifier_field",0.740667,0.00014,0x000000001FF679E7,true,,true,,,,
"CAN","control_field",0.740811,0.000012,,,0x000000000000000F,,,,,
"CAN","crc_field",0.740827,0.000068,,,,,,0x0000000000005FFF,,
"CAN","ack_field",0.740903,0.000004,,,,,,,false,
"CAN","identifier_field",0.747196,0.00006,0x0000000000000300,,,,,,,
"CAN","control_field",0.74726,0.000012,,,0x0000000000000008,,,,,
"CAN","data_field",0.747276,0.000032,,,,,,,,0x03
"CAN","data_field",0.747312,0.000028,,,,,,,,0x5A
"CAN","data_field",0.747344,0.000028,,,,,,,,0x64
"CAN","data_field",0.747376,0.000028,,,,,,,,0x5A
"CAN","data_field",0.747408,0.000028,,,,,,,,0x64
"CAN","data_field",0.74744,0.000032,,,,,,,,0x00
"CAN","data_field",0.74748,0.000028,,,,,,,,0x64
"CAN","data_field",0.747512,0.000028,,,,,,,,0xAD
"CAN","crc_field",0.747544,0.000056,,,,,,0x00000000000074DC,,
"CAN","ack_field",0.747608,0.000004,,,,,,,true,
"CAN","identifier_field",0.74766,0.000056,0x0000000000000301,,,,,,,
"CAN","control_field",0.74772,0.000016,,,0x0000000000000003,,,,,
"CAN","data_field",0.74774,0.000028,,,,,,,,0x4E
"CAN","data_field",0.747772,0.000032,,,,,,,,0x0D
"CAN","data_field",0.747808,0.000032,,,,,,,,0x00
"CAN","crc_field",0.747844,0.00006,,,,,,0x000000000000581C,,
"CAN","ack_field",0.747912,0.000004,,,,,,,true,
"CAN","identifier_field",0.797203,0.00006,0x0000000000000300,,,,,,,
"CAN","control_field",0.797267,0.000012,,,0x0000000000000008,,,,,
"CAN","data_field",0.797283,0.000032,,,,,,,,0x03
"CAN","data_field",0.797319,0.000028,,,,,,,,0x5A
"CAN","data_field",0.797351,0.000028,,,,,,,,0x64
"CAN","data_field",0.797383,0.000028,,,,,,,,0x5A
"CAN","data_field",0.797415,0.000028,,,,,,,,0x64
"CAN","data_field",0.797447,0.000032,,,,,,,,0x00
"CAN","data_field",0.797487,0.000028,,,,,,,,0x64
"CAN","data_field",0.797519,0.000032,,,,,,,,0xBE
"CAN","crc_field",0.797555,0.000056,,,,,,0x0000000000005279,,
"CAN","ack_field",0.797619,0.000004,,,,,,,true,
"CAN","identifier_field",0.797671,0.000056,0x0000000000000301,,,,,,,
"CAN","control_field",0.797731,0.000016,,,0x0000000000000003,,,,,
"CAN","data_field",0.797751,0.000028,,,,,,,,0x1D
"CAN","data_field",0.797783,0.000028,,,,,,,,0x0E
"CAN","data_field",0.797815,0.000032,,,,,,,,0x00
"CAN","crc_field",0.797851,0.00006,,,,,,0x00000000000060D7,,
"CAN","ack_field",0.797919,0.000004,,,,,,,true,
"CAN","identifier_field",0.820864,0.000056,0x00000000000003CF,,,,true,,,
"CAN","control_field",0.820924,0.000012,,,0x000000000000000E,,,,,
"CAN","crc_field",0.82094,0.000064,,,,,,0x0000000000003FF7,,
"CAN","ack_field",0.821012,0.000004,,,,,,,true,
"CAN","identifier_field",0.847982,0.00006,0x0000000000000300,,,,,,,
"CAN","control_field",0.848046,0.000012,,,0x0000000000000008,,,,,
"CAN","data_field",0.848062,0.000032,,,,,,,,0x03
"CAN","data_field",0.848098,0.000028,,,,,,,,0x5A
"CAN","data_field",0.84813,0.000028,,,,,,,,0x64
"CAN","data_field",0.848162,0.000028,,,,,,,,0x5A
"CAN","data_field",0.848194,0.000028,,,,,,,,0x64
"CAN","data_field",0.848226,0.000032,,,,,,,,0x00
"CAN","data_field",0.848266,0.000028,,,,,,,,0x64
"CAN","data_field",0.848298,0.000028,,,,,,,,0xAF
"CAN","crc_field",0.84833,0.000056,,,,,,0x0000000000003A77,,
"CAN","ack_field",0.848394,0.000004,,,,,,,true,
"CAN","identifier_field",0.848446,0.000056,0x0000000000000301,,,,,,,
"CAN","control_field",0.848506,0.000016,,,0x0000000000000003,,,,,
"CAN","data_field",0.848526,0.000032,,,,,,,,0xE8
"CAN","data_field",0.848562,0.000032,,,,,,,,0x0F
"CAN","data_field",0.848598,0.000032,,,,,,,,0x00
"CAN","crc_field",0.848634,0.000056,,,,,,0x00000000000077B9,,
"CAN","ack_field",0.848698,0.000004,,,,,,,true,
"CAN","identifier_field",0.898212,0.00006,0x0000000000000300,,,,,,,
"CAN","control_field",0.898276,0.000012,,,0x0000000000000008,,,,,
"CAN","data_field",0.898292,0.000032,,,,,,,,0x03
"CAN","data_field",0.898328,0.000028,,,,,,,,0x5A
"CAN","data_field",0.89836,0.000028,,,,,,,,0x64
"CAN","data_field",0.898392,0.000028,,,,,,,,0x5A
"CAN","data_field",0.898424,0.000028,,,,,,,,0x64
"CAN","data_field",0.898456,0.000032,,,,,,,,0x00
"CAN","data_field",0.898496,0.000028,,,,,,,,0x64
"CAN","data_field",0.898528,0.000028,,,,,,,,0x30
"CAN","crc_field",0.89856,0.000064,,,,,,0x0000000000001209,,
"CAN","ack_field",0.898632,0.000004,,,,,,,true,
"CAN","identifier_field",0.898684,0.000056,0x0000000000000301,,,,,,,
"CAN","control_field",0.898744,0.000016,,,0x0000000000000003,,,,,
"CAN","data_field",0.898764,0.000032,,,,,,,,0xE2
"CAN","data_field",0.8988,0.000032,,,,,,,,0x00
"CAN","data_field",0.898836,0.000036,,,,,,,,0x00
"CAN","crc_field",0.898876,0.000056,,,,,,0x0000000000002F6A,,
"CAN","ack_field",0.89894,0.000004,,,,,,,true,
"CAN","identifier_field",0.921234,0.000136,0x000000001C7B9F71,true,,true,,,,
"CAN","control_field",0.921374,0.000016,,,0x000000000000000F,,,,,
"CAN","crc_field",0.921394,0.00006,,,,,,0x0000000000006F3C,,
"CAN","ack_field",0.921462,0.000004,,,,,,,false,
"CAN","identifier_field",0.941318,0.000132,0x000000001C739E78,true,,true,,,,
"CAN","control_field",0.941454,0.000012,,,0x0000000000000001,,,,,
"CAN","crc_field",0.94147,0.000056,,,,,,0x00000000000073CF,,
"CAN","ack_field",0.941534,0.000004,,,,,,,false,
"CAN","identifier_field",0.948219,0.00006,0x0000000000000300,,,,,,,
"CAN","control_field",0.948283,0.000012,,,0x0000000000000008,,,,,
"CAN","data_field",0.948299,0.000032,,,,,,,,0x03
