name,type,start_time,duration,"identifier","num_data_bytes","crc","ack","data"
"CAN","identifier_field",0.005624,0.000056,0x0000000000000404,,,,
"CAN","control_field",0.005688,0.000012,,0x0000000000000002,,,
"CAN","data_field",0.005704,0.000028,,,,,0x46
"CAN","data_field",0.005736,0.000032,,,,,0x00
"CAN","crc_field",0.005772,0.00006,,,0x0000000000001DEB,,
"CAN","ack_field",0.00584,0.000004,,,,true,
"CAN","identifier_field",0.017525,0.00006,0x0000000000000300,,,,
"CAN","control_field",0.017589,0.000012,,0x0000000000000008,,,
"CAN","data_field",0.017605,0.000032,,,,,0x03
"CAN","data_field",0.017641,0.000028,,,,,0x5A
"CAN","data_field",0.017673,0.000028,,,,,0x64
"CAN","data_field",0.017705,0.000028,,,,,0x5A
"CAN","data_field",0.017737,0.000028,,,,,0x64
"CAN","data_field",0.017769,0.000032,,,,,0x00
"CAN","data_field",0.017809,0.000028,,,,,0x64
"CAN","data_field",0.017841,0.000028,,,,,0x21
"CAN","crc_field",0.017873,0.000064,,,0x0000000000007A07,,
"CAN","ack_field",0.017945,0.000004,,,,true,
"CAN","identifier_field",0.017997,0.000056,0x0000000000000301,,,,
"CAN","control_field",0.018057,0.000016,,0x0000000000000003,,,
"CAN","data_field",0.018077,0.000028,,,,,0xB3
"CAN","data_field",0.018109,0.000032,,,,,0x01
"CAN","data_field",0.018145,0.000032,,,,,0x00
"CAN","crc_field",0.018181,0.00006,,,0x0000000000007FC5,,
"CAN","ack_field",0.018249,0.000004,,,,true,
"CAN","identifier_field",0.036772,0.000056,0x0000000000000404,,,,
"CAN","control_field",0.036836,0.000012,,0x0000000000000002,,,
"CAN","data_field",0.036852,0.000028,,,,,0x4D
"CAN","data_field",0.036884,0.000032,,,,,0x00
"CAN","crc_field",0.03692,0.000056,,,0x0000000000006DE7,,
"CAN","ack_field",0.036984,0.000004,,,,true,
"CAN","identifier_field",0.067529,0.00006,0x0000000000000300,,,,
"CAN","control_field",0.067593,0.000012,,0x0000000000000008,,,
"CAN","data_field",0.067609,0.000032,,,,,0x03
"CAN","data_field",0.067645,0.000028,,,,,0x5A
"CAN","data_field",0.067677,0.000028,,,,,0x64
"CAN","data_field",0.067709,0.000028,,,,,0x5A
"CAN","data_field",0.067741,0.000028,,,,,0x64
"CAN","data_field",0.067773,0.000032,,,,,0x00
"CAN","data_field",0.067813,0.000028,,,,,0x64
"CAN","data_field",0.067845,0.000028,,,,,0x32
"CAN","crc_field",0.067877,0.000056,,,0x0000000000005CA2,,
"CAN","ack_field",0.067941,0.000004,,,,true,
"CAN","identifier_field",0.067993,0.000056,0x0000000000000301,,,,
"CAN","control_field",0.068053,0.000016,,0x0000000000000003,,,
"CAN","data_field",0.068073,0.000028,,,,,0x6B
"CAN","data_field",0.068105,0.000032,,,,,0x02
"CAN","data_field",0.068141,0.000032,,,,,0x00
"CAN","crc_field",0.068177,0.000056,,,0x0000000000004E8A,,
"CAN","ack_field",0.068241,0.000004,,,,true,
"CAN","identifier_field",0.068293,0.000056,0x0000000000000404,,,,
"CAN","control_field",0.068357,0.000012,,0x0000000000000002,,,
"CAN","data_field",0.068373,0.000028,,,,,0x50
"CAN","data_field",0.068405,0.000036,,,,,0x00
"CAN","crc_field",0.068445,0.000056,,,0x000000000000386A,,
"CAN","ack_field",0.068509,0.000004,,,,true,
"CAN","identifier_field",0.104549,0.000056,0x0000000000000404,,,,
"CAN","control_field",0.104613,0.000012,,0x0000000000000002,,,
"CAN","data_field",0.104629,0.000032,,,,,0x02
"CAN","data_field",0.104665,0.000032,,,,,0x00
"CAN","crc_field",0.104701,0.00006,,,0x0000000000005FDD,,
"CAN","ack_field",0.104769,0.000004,,,,true,
"CAN","identifier_field",0.117533,0.00006,0x0000000000000300,,,,
"CAN","control_field",0.117597,0.000012,,0x0000000000000008,,,
"CAN","data_field",0.117613,0.000032,,,,,0x03
"CAN","data_field",0.117649,0.000028,,,,,0x5A
"CAN","data_field",0.117681,0.000028,,,,,0x64
"CAN","data_field",0.117713,0.000028,,,,,0x5A
"CAN","data_field",0.117745,0.000028,,,,,0x64
"CAN","data_field",0.117777,0.000032,,,,,0x00
"CAN","data_field",0.117817,0.000028,,,,,0x64
"CAN","data_field",0.117849,0.000028,,,,,0x23
"CAN","crc_field",0.117881,0.000056,,,0x00000000000034AC,,
"CAN","ack_field",0.117945,0.000004,,,,true,
"CAN","identifier_field",0.117997,0.000056,0x0000000000000301,,,,
"CAN","control_field",0.118057,0.000016,,0x0000000000000003,,,
"CAN","data_field",0.118077,0.000028,,,,,0x96
"CAN","data_field",0.118109,0.000032,,,,,0x03
"CAN","data_field",0.118145,0.000032,,,,,0x00
"CAN","crc_field",0.118181,0.00006,,,0x0000000000000AB9,,
"CAN","ack_field",0.118249,0.000004,,,,true,
"CAN","identifier_field",0.130518,0.000056,0x0000000000000404,,,,
"CAN","control_field",0.130582,0.000012,,0x0000000000000002,,,
"CAN","data_field",0.130598,0.000032,,,,,0x0A
"CAN","data_field",0.130634,0.000032,,,,,0x00
"CAN","crc_field",0.13067,0.00006,,,0x0000000000002622,,
"CAN","ack_field",0.130738,0.000004,,,,true,
"CAN","identifier_field",0.161818,0.000056,0x0000000000000404,,,,
"CAN","control_field",0.161882,0.000012,,0x0000000000000002,,,
"CAN","data_field",0.161898,0.000032,,,,,0x04
"CAN","data_field",0.161934,0.000032,,,,,0x00
"CAN","crc_field",0.161974,0.000056,,,0x0000000000004C3B,,
"CAN","ack_field",0.162038,0.000004,,,,true,
"CAN","identifier_field",0.16754,0.00006,0x0000000000000300,,,,
"CAN","control_field",0.167604,0.000012,,0x0000000000000008,,,
"CAN","data_field",0.16762,0.000032,,,,,0x03
"CAN","data_field",0.167656,0.000028,,,,,0x5A
"CAN","data_field",0.167688,0.000028,,,,,0x64
"CAN","data_field",0.16772,0.000028,,,,,0x5A
"CAN","data_field",0.167752,0.000028,,,,,0x64
"CAN","data_field",0.167784,0.000032,,,,,0x00
"CAN","data_field",0.167824,0.000028,,,,,0x64
"CAN","data_field",0.167856,0.000028,,,,,0x34
"CAN","crc_field",0.167888,0.000056,,,0x0000000000004AC6,,
"CAN","ack_field",0.167952,0.000004,,,,true,
"CAN","identifier_field",0.168004,0.000056,0x0000000000000301,,,,
"CAN","control_field",0.168064,0.000016,,0x0000000000000003,,,
"CAN","data_field",0.168084,0.000032,,,,,0x03
"CAN","data_field",0.16812,0.000032,,,,,0x04
"CAN","data_field",0.168156,0.000032,,,,,0x00
"CAN","crc_field",0.168196,0.000056,,,0x0000000000000A50,,
"CAN","ack_field",0.16826,0.000004,,,,true,
"CAN","identifier_field",0.193061,0.000056,0x0000000000000404,,,,
"CAN","control_field",0.193125,0.000012,,0x0000000000000002,,,
"CAN","data_field",0.193141,0.000028,,,,,0xB0
"CAN","data_field",0.193173,0.000036,,,,,0x01
"CAN","crc_field",0.193213,0.000056,,,0x0000000000003532,,
"CAN","ack_field",0.193277,0.000004,,,,true,
"CAN","identifier_field",0.217544,0.00006,0x0000000000000300,,,,
"CAN","control_field",0.217608,0.000012,,0x0000000000000008,,,
"CAN","data_field",0.217624,0.000032,,,,,0x03
"CAN","data_field",0.21766,0.000028,,,,,0x5A
"CAN","data_field",0.217692,0.000028,,,,,0x64
"CAN","data_field",0.217724,0.000028,,,,,0x5A
"CAN","data_field",0.217756,0.000028,,,,,0x64
"CAN","data_field",0.217788,0.000032,,,,,0x00
"CAN","data_field",0.217828,0.000028,,,,,0x64
"CAN","data_field",0.21786,0.000028,,,,,0x25
"CAN","crc_field",0.217892,0.000056,,,0x00000000000022C8,,
"CAN","ack_field",0.217956,0.000004,,,,true,
"CAN","identifier_field",0.218008,0.000056,0x0000000000000301,,,,
"CAN","control_field",0.218068,0.000016,,0x0000000000000003,,,
"CAN","data_field",0.218088,0.000028,,,,,0x54
"CAN","data_field",0.21812,0.000032,,,,,0x05
"CAN","data_field",0.218156,0.000032,,,,,0x00
"CAN","crc_field",0.218192,0.000056,,,0x000000000000342C,,
"CAN","ack_field",0.218256,0.000004,,,,true,
"CAN","identifier_field",0.224272,0.000056,0x0000000000000404,,,,
"CAN","control_field",0.224336,0.000012,,0x0000000000000002,,,
"CAN","data_field",0.224352,0.000028,,,,,0xB1
"CAN","data_field",0.224384,0.000032,,,,,0x01
"CAN","crc_field",0.22442,0.000056,,,0x0000000000007114,,
"CAN","ack_field",0.224484,0.000004,,,,true,
"CAN","identifier_field",0.267549,0.00006,0x0000000000000300,,,,
"CAN","control_field",0.267613,0.000012,,0x0000000000000008,,,
"CAN","data_field",0.267629,0.000032,,,,,0x03
"CAN","data_field",0.267665,0.000028,,,,,0x5A
"CAN","data_field",0.267697,0.000028,,,,,0x64
"CAN","data_field",0.267729,0.000028,,,,,0x5A
"CAN","data_field",0.267761,0.000028,,,,,0x64
"CAN","data_field",0.267793,0.000032,,,,,0x00
"CAN","data_field",0.267833,0.000028,,,,,0x64
"CAN","data_field",0.267865,0.000028,,,,,0x36
"CAN","crc_field",0.267897,0.00006,,,0x000000000000046D,,
"CAN","ack_field",0.267965,0.000004,,,,true,
"CAN","identifier_field",0.268017,0.000056,0x0000000000000301,,,,
"CAN","control_field",0.268077,0.000016,,0x0000000000000003,,,
"CAN","data_field",0.268097,0.000032,,,,,0xF5
"CAN","data_field",0.268133,0.000032,,,,,0x06
"CAN","data_field",0.268169,0.000032,,,,,0x00
"CAN","crc_field",0.268205,0.00006,,,0x0000000000004168,,
"CAN","ack_field",0.268273,0.000004,,,,true,
"CAN","identifier_field",0.317557,0.00006,0x0000000000000300,,,,
"CAN","control_field",0.317621,0.000012,,0x0000000000000008,,,
"CAN","data_field",0.317637,0.000032,,,,,0x03
"CAN","data_field",0.317673,0.000028,,,,,0x5A
"CAN","data_field",0.317705,0.000028,,,,,0x64
"CAN","data_field",0.317737,0.000028,,,,,0x5A
"CAN","data_field",0.317769,0.000028,,,,,0x64
"CAN","data_field",0.317801,0.000032,,,,,0x00
"CAN","data_field",0.317841,0.000028,,,,,0x64
"CAN","data_field",0.317873,0.000028,,,,,0x27
"CAN","crc_field",0.317905,0.00006,,,0x0000000000006C63,,
"CAN","ack_field",0.317973,0.000004,,,,true,
"CAN","identifier_field",0.318025,0.000056,0x0000000000000301,,,,
"CAN","control_field",0.318085,0.000016,,0x0000000000000003,,,
"CAN","data_field",0.318105,0.000028,,,,,0xB8
"CAN","data_field",0.318137,0.000032,,,,,0x07
"CAN","data_field",0.318173,0.000032,,,,,0x00
"CAN","crc_field",0.318209,0.000056,,,0x0000000000006ADB,,
"CAN","ack_field",0.318273,0.000004,,,,true,
"CAN","identifier_field",0.367559,0.00006,0x0000000000000300,,,,
"CAN","control_field",0.367623,0.000012,,0x0000000000000008,,,
"CAN","data_field",0.367639,0.000032,,,,,0x03
"CAN","data_field",0.367675,0.000028,,,,,0x5A
"CAN","data_field",0.367707,0.000028,,,,,0x64
"CAN","data_field",0.367739,0.000028,,,,,0x5A
"CAN","data_field",0.367771,0.000028,,,,,0x64
"CAN","data_field",0.367803,0.000032,,,,,0x00
"CAN","data_field",0.367843,0.000028,,,,,0x64
"CAN","data_field",0.367875,0.000028,,,,,0xB8
"CAN","crc_field",0.367907,0.00006,,,0x000000000000441D,,
"CAN","ack_field",0.367975,0.000004,,,,true,
"CAN","identifier_field",0.368027,0.000056,0x0000000000000301,,,,
"CAN","control_field",0.368087,0.000016,,0x0000000000000003,,,
"CAN","data_field",0.368107,0.000032,,,,,0x80
"CAN","data_field",0.368143,0.000032,,,,,0x08
"CAN","data_field",0.368179,0.000036,,,,,0x00
"CAN","crc_field",0.368219,0.000056,,,0x0000000000007745,,
"CAN","ack_field",0.368283,0.000004,,,,true,
"CAN","identifier_field",0.417565,0.00006,0x0000000000000300,,,,
"CAN","control_field",0.417629,0.000012,,0x0000000000000008,,,
"CAN","data_field",0.417645,0.000032,,,,,0x03
"CAN","data_field",0.417681,0.000028,,,,,0x5A
"CAN","data_field",0.417713,0.000028,,,,,0x64
"CAN","data_field",0.417745,0.000028,,,,,0x5A
"CAN","data_field",0.417777,0.000028,,,,,0x64
"CAN","data_field",0.417809,0.000032,,,,,0x00
"CAN","data_field",0.417849,0.000028,,,,,0x64
"CAN","data_field",0.417881,0.000028,,,,,0xA9
"CAN","crc_field",0.417913,0.00006,,,0x0000000000002C13,,
"CAN","ack_field",0.417981,0.000004,,,,true,
"CAN","identifier_field",0.418033,0.000056,0x0000000000000301,,,,
"CAN","control_field",0.418093,0.000016,,0x0000000000000003,,,
"CAN","data_field",0.418113,0.000028,,,,,0x88
"CAN","data_field",0.418145,0.000032,,,,,0x09
"CAN","data_field",0.418181,0.000032,,,,,0x00
"CAN","crc_field",0.418217,0.000064,,,0x000000000000603E,,
"CAN","ack_field",0.418289,0.000004,,,,true,
"CAN","identifier_field",0.467571,0.00006,0x0000000000000300,,,,
"CAN","control_field",0.467635,0.000012,,0x0000000000000008,,,
"CAN","data_field",0.467651,0.000032,,,,,0x03
"CAN","data_field",0.467687,0.000028,,,,,0x5A
"CAN","data_field",0.467719,0.000028,,,,,0x64
"CAN","data_field",0.467751,0.000028,,,,,0x5A
"CAN","data_field",0.467783,0.000028,,,,,0x64
"CAN","data_field",0.467815,0.000032,,,,,0x00
"CAN","data_field",0.467855,0.000028,,,,,0x64
"CAN","data_field",0.467887,0.000028,,,,,0xBA
"CAN","crc_field",0.467919,0.000056,,,0x0000000000000AB6,,
"CAN","ack_field",0.467983,0.000004,,,,true,
"CAN","identifier_field",0.468035,0.000056,0x0000000000000301,,,,
"CAN","control_field",0.468095,0.000016,,0x0000000000000003,,,
"CAN","data_field",0.468115,0.000032,,,,,0xC6
"CAN","data_field",0.468151,0.000032,,,,,0x0A
"CAN","data_field",0.468187,0.000032,,,,,0x00
"CAN","crc_field",0.468223,0.00006,,,0x00000000000053FD,,
"CAN","ack_field",0.468291,0.000004,,,,true,
"CAN","identifier_field",0.517576,0.00006,0x0000000000000300,,,,
"CAN","control_field",0.51764,0.000012,,0x0000000000000008,,,
"CAN","data_field",0.517656,0.000032,,,,,0x03
"CAN","data_field",0.517692,0.000028,,,,,0x5A
"CAN","data_field",0.517724,0.000028,,,,,0x64
"CAN","data_field",0.517756,0.000028,,,,,0x5A
"CAN","data_field",0.517788,0.000028,,,,,0x64
"CAN","data_field",0.51782,0.000032,,,,,0x00
"CAN","data_field",0.51786,0.000028,,,,,0x64
"CAN","data_field",0.517892,0.000028,,,,,0xAB
"CAN","crc_field",0.517924,0.000056,,,0x00000000000062B8,,
"CAN","ack_field",0.517988,0.000004,,,,true,
"CAN","identifier_field",0.51804,0.000056,0x0000000000000301,,,,
"CAN","control_field",0.5181,0.000016,,0x0000000000000003,,,
"CAN","data_field",0.51812,0.000028,,,,,0x43
"CAN","data_field",0.518152,0.000028,,,,,0x0B
"CAN","data_field",0.518184,0.000032,,,,,0x00
"CAN","crc_field",0.51822,0.000056,,,0x00000000000023D1,,
"CAN","ack_field",0.518284,0.000004,,,,true,
"CAN","identifier_field",0.568359,0.00006,0x0000000000000300,,,,
"CAN","control_field",0.568423,0.000012,,0x0000000000000008,,,
"CAN","data_field",0.568439,0.000032,,,,,0x03
"CAN","data_field",0.568475,0.000028,,,,,0x5A
"CAN","data_field",0.568507,0.000028,,,,,0x64
"CAN","data_field",0.568539,0.000028,,,,,0x5A
"CAN","data_field",0.568571,0.000028,,,,,0x64
"CAN","data_field",0.568603,0.000032,,,,,0x00
"CAN","data_field",0.568643,0.000028,,,,,0x64
"CAN","data_field",0.568675,0.000028,,,,,0xBC
"CAN","crc_field",0.568707,0.000056,,,0x0000000000001CD2,,
"CAN","ack_field",0.568771,0.000004,,,,true,
"CAN","identifier_field",0.569312,0.000056,0x0000000000000301,,,,
"CAN","control_field",0.569372,0.000016,,0x0000000000000003,,,
"CAN","data_field",0.569392,0.000028,,,,,0xB5
"CAN","data_field",0.569424,0.000028,,,,,0x0C
"CAN","data_field",0.569456,0.000032,,,,,0x00
"CAN","crc_field",0.569496,0.00006,,,0x00000000000072FC,,
"CAN","ack_field",0.569564,0.000004,,,,true,
"CAN","identifier_field",0.617589,0.00006,0x0000000000000300,,,,
"CAN","control_field",0.617653,0.000012,,0x0000000000000008,,,
"CAN","data_field",0.617669,0.000032,,,,,0x03
"CAN","data_field",0.617705,0.000028,,,,,0x5A
"CAN","data_field",0.617737,0.000028,,,,,0x64
"CAN","data_field",0.617769,0.000028,,,,,0x5A
"CAN","data_field",0.617801,0.000028,,,,,0x64
"CAN","data_field",0.617833,0.000032,,,,,0x00
"CAN","data_field",0.617873,0.000028,,,,,0x64
"CAN","data_field",0.617905,0.000028,,,,,0xAD
"CAN","crc_field",0.617937,0.000056,,,0x00000000000074DC,,
"CAN","ack_field",0.618001,0.000004,,,,true,
"CAN","identifier_field",0.618053,0.000056,0x0000000000000301,,,,
"CAN","control_field",0.618113,0.000016,,0x0000000000000003,,,
"CAN","data_field",0.618133,0.000028,,,,,0x4E
"CAN","data_field",0.618165,0.000032,,,,,0x0D
"CAN","data_field",0.618201,0.000032,,,,,0x00
"CAN","crc_field",0.618237,0.00006,,,0x000000000000581C,,
"CAN","ack_field",0.618305,0.000004,,,,true,
"CAN","identifier_field",0.667591,0.00006,0x0000000000000300,,,,
"CAN","control_field",0.667655,0.000012,,0x0000000000000008,,,
"CAN","data_field",0.667671,0.000032,,,,,0x03
"CAN","data_field",0.667707,0.000028,,,,,0x5A
"CAN","data_field",0.667739,0.000028,,,,,0x64
"CAN","data_field",0.667771,0.000028,,,,,0x5A
"CAN","data_field",0.667803,0.000028,,,,,0x64
"CAN","data_field",0.667835,0.000032,,,,,0x00
"CAN","data_field",0.667875,0.000028,,,,,0x64
"CAN","data_field",0.667907,0.000032,,,,,0xBE
"CAN","crc_field",0.667943,0.000056,,,0x0000000000005279,,
"CAN","ack_field",0.668007,0.000004,,,,true,
"CAN","identifier_field",0.668059,0.000056,0x0000000000000301,,,,
"CAN","control_field",0.668119,0.000016,,0x0000000000000003,,,
"CAN","data_field",0.668139,0.000028,,,,,0x1D
"CAN","data_field",0.668171,0.000028,,,,,0x0E
"CAN","data_field",0.668203,0.000032,,,,,0x00
"CAN","crc_field",0.668239,0.00006,,,0x00000000000060D7,,
"CAN","ack_field",0.668307,0.000004,,,,true,
"CAN","identifier_field",0.717599,0.00006,0x0000000000000300,,,,
"CAN","control_field",0.717663,0.000012,,0x0000000000000008,,,
"CAN","data_field",0.717679,0.000032,,,,,0x03
"CAN","data_field",0.717715,0.000028,,,,,0x5A
"CAN","data_field",0.717747,0.000028,,,,,0x64
"CAN","data_field",0.717779,0.000028,,,,,0x5A
"CAN","data_field",0.717811,0.000028,,,,,0x64
"CAN","data_field",0.717843,0.000032,,,,,0x00
"CAN","data_field",0.717883,0.000028,,,,,0x64
"CAN","data_field",0.717915,0.000028,,,,,0xAF
"CAN","crc_field",0.717947,0.000056,,,0x0000000000003A77,,
"CAN","ack_field",0.718011,0.000004,,,,true,
"CAN","identifier_field",0.718063,0.000056,0x0000000000000301,,,,
"CAN","control_field",0.718123,0.000016,,0x0000000000000003,,,
"CAN","data_field",0.718143,0.000032,,,,,0xE8
"CAN","data_field",0.718179,0.000032,,,,,0x0F
"CAN","data_field",0.718215,0.000032,,,,,0x00
"CAN","crc_field",0.718251,0.000056,,,0x00000000000077B9,,
"CAN","ack_field",0.718315,0.000004,,,,true,
"CAN","identifier_field",0.767602,0.00006,0x0000000000000300,,,,
"CAN","control_field",0.767666,0.000012,,0x0000000000000008,,,
"CAN","data_field",0.767682,0.000032,,,,,0x03
"CAN","data_field",0.767718,0.000028,,,,,0x5A
"CAN","data_field",0.76775,0.000028,,,,,0x64
"CAN","data_field",0.767782,0.000028,,,,,0x5A
"CAN","data_field",0.767814,0.000028,,,,,0x64
"CAN","data_field",0.767846,0.000032,,,,,0x00
"CAN","data_field",0.767886,0.000028,,,,,0x64
"CAN","data_field",0.767918,0.000028,,,,,0x30
"CAN","crc_field",0.76795,0.000064,,,0x0000000000001209,,
"CAN","ack_field",0.768022,0.000004,,,,true,
"CAN","identifier_field",0.768074,0.000056,0x0000000000000301,,,,
"CAN","control_field",0.768134,0.000016,,0x0000000000000003,,,
"CAN","data_field",0.768154,0.000032,,,,,0xE2
"CAN","data_field",0.76819,0.000032,,,,,0x00
"CAN","data_field",0.768226,0.000036,,,,,0x00
"CAN","crc_field",0.768266,0.000056,,,0x0000000000002F6A,,
"CAN","ack_field",0.76833,0.000004,,,,true,
"CAN","identifier_field",0.817608,0.00006,0x0000000000000300,,,,
"CAN","control_field",0.817672,0.000012,,0x0000000000000008,,,
"CAN","data_field",0.817688,0.000032,,,,,0x03
"CAN","data_field",0.817724,0.000028,,,,,0x5A
"CAN","data_field",0.817756,0.000028,,,,,0x64
"CAN","data_field",0.817788,0.000028,,,,,0x5A
"CAN","data_field",0.81782,0.000028,,,,,0x64
"CAN","data_field",0.817852,0.000032,,,,,0x00
"CAN","data_field",0.817892,0.000028,,,,,0x64
"CAN","data_field",0.817924,0.000028,,,,,0x21
"CAN","crc_field",0.817956,0.000064,,,0x0000000000007A07,,
"CAN","ack_field",0.818028,0.000004,,,,true,
"CAN","identifier_field",0.81808,0.000056,0x0000000000000301,,,,
"CAN","control_field",0.81814,0.000016,,0x0000000000000003,,,
"CAN","data_field",0.81816,0.000028,,,,,0xB3
"CAN","data_field",0.818192,0.000032,,,,,0x01
"CAN","data_field",0.818228,0.000032,,,,,0x00
"CAN","crc_field",0.818264,0.00006,,,0x0000000000007FC5,,
"CAN","ack_field",0.818332,0.000004,,,,true,
"CAN","identifier_field",0.867613,0.00006,0x0000000000000300,,,,
"CAN","control_field",0.867677,0.000012,,0x0000000000000008,,,
"CAN","data_field",0.867693,0.000032,,,,,0x03
"CAN","data_field",0.867729,0.000028,,,,,0x5A
"CAN","data_field",0.867761,0.000028,,,,,0x64
"CAN","data_field",0.867793,0.000028,,,,,0x5A
"CAN","data_field",0.867825,0.000028,,,,,0x64
"CAN","data_field",0.867857,0.000032,,,,,0x00
"CAN","data_field",0.867897,0.000028,,,,,0x64
"CAN","data_field",0.867929,0.000028,,,,,0x32
"CAN","crc_field",0.867961,0.000056,,,0x0000000000005CA2,,
"CAN","ack_field",0.868025,0.000004,,,,true,
"CAN","identifier_field",0.868077,0.000056,0x0000000000000301,,,,
"CAN","control_field",0.868137,0.000016,,0x0000000000000003,,,
"CAN","data_field",0.868157,0.000028,,,,,0x6B
"CAN","data_field",0.868189,0.000032,,,,,0x02
