name,type,start_time,duration,"identifier","extended","num_data_bytes","RemoteFrame","remote_frame","crc","ack","data"
"CAN","identifier_field",0.027699,0.00006,0x0000000000000300,,,,,,,
"CAN","control_field",0.027763,0.000012,,,0x0000000000000008,,,,,
"CAN","data_field",0.027779,0.000032,,,,,,,,0x03
"CAN","data_field",0.027815,0.000028,,,,,,,,0x5A
"CAN","data_field",0.027847,0.000028,,,,,,,,0x64
"CAN","data_field",0.027879,0.000028,,,,,,,,0x5A
"CAN","data_field",0.027911,0.000028,,,,,,,,0x64
"CAN","data_field",0.027943,0.000032,,,,,,,,0x00
"CAN","data_field",0.027983,0.000028,,,,,,,,0x64
"CAN","data_field",0.028015,0.000028,,,,,,,,0xAB
"CAN","crc_field",0.028047,0.000056,,,,,,0x00000000000062B8,,
"CAN","ack_field",0.028111,0.000004,,,,,,,true,
"CAN","identifier_field",0.028163,0.000056,0x0000000000000301,,,,,,,
"CAN","control_field",0.028223,0.000016,,,0x0000000000000003,,,,,
"CAN","data_field",0.028243,0.000028,,,,,,,,0x43
"CAN","data_field",0.028275,0.000028,,,,,,,,0x0B
"CAN","data_field",0.028307,0.000032,,,,,,,,0x00
"CAN","crc_field",0.028343,0.000056,,,,,,0x00000000000023D1,,
"CAN","ack_field",0.028407,0.000004,,,,,,,true,
"CAN","identifier_field",0.065312,0.000052,0x00000000000002D1,,,,true,,,
"CAN","control_field",0.065368,0.000012,,,0x0000000000000007,,,,,
"CAN","crc_field",0.065384,0.00006,,,,,,0x000000000000067C,,
"CAN","ack_field",0.065452,0.000004,,,,,,,false,
"CAN","identifier_field",0.077705,0.00006,0x0000000000000300,,,,,,,
"CAN","control_field",0.077769,0.000012,,,0x0000000000000008,,,,,
"CAN","data_field",0.077785,0.000032,,,,,,,,0x03
"CAN","data_field",0.077821,0.000028,,,,,,,,0x5A
"CAN","data_field",0.077853,0.000028,,,,,,,,0x64
"CAN","data_field",0.077885,0.000028,,,,,,,,0x5A
"CAN","data_field",0.077917,0.000028,,,,,,,,0x64
"CAN","data_field",0.077949,0.000032,,,,,,,,0x00
"CAN","data_field",0.077989,0.000028,,,,,,,,0x64
"CAN","data_field",0.078021,0.000028,,,,,,,,0xBC
"CAN","crc_field",0.078053,0.000056,,,,,,0x0000000000001CD2,,
"CAN","ack_field",0.078117,0.000004,,,,,,,true,
"CAN","identifier_field",0.078169,0.000056,0x0000000000000301,,,,,,,
"CAN","control_field",0.078229,0.000016,,,0x0000000000000003,,,,,
"CAN","data_field",0.078249,0.000028,,,,,,,,0xB5
"CAN","data_field",0.078281,0.000028,,,,,,,,0x0C
"CAN","data_field",0.078313,0.000032,,,,,,,,0x00
"CAN","crc_field",0.078353,0.00006,,,,,,0x00000000000072FC,,
"CAN","ack_field",0.078421,0.000004,,,,,,,true,
"CAN","identifier_field",0.085348,0.000136,0x0000000002099668,true,,true,,,,
"CAN","control_field",0.085488,0.000012,,,0x000000000000000B,,,,,
"CAN","crc_field",0.085504,0.000056,,,,,,0x00000000000038E1,,
"CAN","ack_field",0.085568,0.000004,,,,,,,true,
"CAN","identifier_field",0.127708,0.00006,0x0000000000000300,,,,,,,
"CAN","control_field",0.127772,0.000012,,,0x0000000000000008,,,,,
"CAN","data_field",0.127788,0.000032,,,,,,,,0x03
"CAN","data_field",0.127824,0.000028,,,,,,,,0x5A
"CAN","data_field",0.127856,0.000028,,,,,,,,0x64
"CAN","data_field",0.127888,0.000028,,,,,,,,0x5A
"CAN","data_field",0.12792,0.000028,,,,,,,,0x64
"CAN","data_field",0.127952,0.000032,,,,,,,,0x00
"CAN","data_field",0.127992,0.000028,,,,,,,,0x64
"CAN","data_field",0.128024,0.000028,,,,,,,,0xAD
"CAN","crc_field",0.128056,0.000056,,,,,,0x00000000000074DC,,
"CAN","ack_field",0.12812,0.000004,,,,,,,true,
"CAN","identifier_field",0.128172,0.000056,0x0000000000000301,,,,,,,
"CAN","control_field",0.128232,0.000016,,,0x0000000000000003,,,,,
"CAN","data_field",0.128252,0.000028,,,,,,,,0x4E
"CAN","data_field",0.128284,0.000032,,,,,,,,0x0D
"CAN","data_field",0.12832,0.000032,,,,,,,,0x00
"CAN","crc_field",0.128356,0.00006,,,,,,0x000000000000581C,,
"CAN","ack_field",0.128424,0.000004,,,,,,,true,
"CAN","identifier_field",0.165538,0.000052,0x000000000000030E,,,,true,,,
"CAN","control_field",0.165594,0.000012,,,0x000000000000000B,,,,,
"CAN","identifier_field",0.165669,0.000136,0x00000000125C9BE3,true,,,,,,
"CAN","control_field",0.165809,0.000012,,,0x000000000000000A,,,,,
"CAN","data_field",0.165825,0.000028,,,,,,,,0x4D
"CAN","data_field",0.165857,0.000028,,,,,,,,0x35
"CAN","identifier_field",0.177714,0.00006,0x0000000000000300,,,,,,,
"CAN","control_field",0.177778,0.000012,,,0x0000000000000008,,,,,
"CAN","data_field",0.177794,0.000032,,,,,,,,0x03
"CAN","data_field",0.17783,0.000028,,,,,,,,0x5A
"CAN","data_field",0.177862,0.000028,,,,,,,,0x64
"CAN","data_field",0.177894,0.000028,,,,,,,,0x5A
"CAN","data_field",0.177926,0.000028,,,,,,,,0x64
"CAN","data_field",0.177958,0.000032,,,,,,,,0x00
"CAN","data_field",0.177998,0.000028,,,,,,,,0x64
"CAN","data_field",0.17803,0.000032,,,,,,,,0xBE
"CAN","crc_field",0.178066,0.000056,,,,,,0x0000000000005279,,
"CAN","ack_field",0.17813,0.000004,,,,,,,true,
"CAN","identifier_field",0.178182,0.000056,0x0000000000000301,,,,,,,
"CAN","control_field",0.178242,0.000016,,,0x0000000000000003,,,,,
"CAN","data_field",0.178262,0.000028,,,,,,,,0x1D
"CAN","data_field",0.178294,0.000028,,,,,,,,0x0E
"CAN","data_field",0.178326,0.000032,,,,,,,,0x00
"CAN","crc_field",0.178362,0.00006,,,,,,0x00000000000060D7,,
"CAN","ack_field",0.17843,0.000004,,,,,,,true,
"CAN","identifier_field",0.185584,0.000052,0x00000000000000E3,,,,,,,
"CAN","control_field",0.18564,0.000012,,,0x0000000000000007,,,,,
"CAN","data_field",0.185656,0.000032,,,,,,,,0xCB
"CAN","data_field",0.185692,0.000028,,,,,,,,0x74
"CAN","data_field",0.185724,0.000028,,,,,,,,0xB7
"CAN","data_field",0.185756,0.000032,,,,,,,,0xD8
"CAN","data_field",0.185792,0.000032,,,,,,,,0xFB
"CAN","data_field",0.185828,0.000028,,,,,,,,0x1E
"CAN","data_field",0.18586,0.000028,,,,,,,,0x28
"CAN","crc_field",0.185892,0.000056,,,,,,0x0000000000007967,,
"CAN","ack_field",0.185956,0.000004,,,,,,,false,
"CAN","identifier_field",0.227718,0.00006,0x0000000000000300,,,,,,,
"CAN","control_field",0.227782,0.000012,,,0x0000000000000008,,,,,
"CAN","data_field",0.227798,0.000032,,,,,,,,0x03
"CAN","data_field",0.227834,0.000028,,,,,,,,0x5A
"CAN","data_field",0.227866,0.000028,,,,,,,,0x64
"CAN","data_field",0.227898,0.000028,,,,,,,,0x5A
"CAN","data_field",0.22793,0.000028,,,,,,,,0x64
"CAN","data_field",0.227962,0.000032,,,,,,,,0x00
"CAN","data_field",0.228002,0.000028,,,,,,,,0x64
"CAN","data_field",0.228034,0.000028,,,,,,,,0xAF
"CAN","crc_field",0.228066,0.000056,,,,,,0x0000000000003A77,,
"CAN","ack_field",0.22813,0.000004,,,,,,,true,
"CAN","identifier_field",0.228182,0.000056,0x0000000000000301,,,,,,,
"CAN","control_field",0.228242,0.000016,,,0x0000000000000003,,,,,
"CAN","data_field",0.228262,0.000032,,,,,,,,0xE8
"CAN","data_field",0.228298,0.000032,,,,,,,,0x0F
"CAN","data_field",0.228334,0.000032,,,,,,,,0x00
"CAN","crc_field",0.22837,0.000056,,,,,,0x00000000000077B9,,
"CAN","ack_field",0.228434,0.000004,,,,,,,true,
"CAN","identifier_field",0.245758,0.000136,0x000000000038F30C,true,,,,,,
"CAN","control_field",0.245898,0.000012,,,0x000000000000000C,,,,,
"CAN","data_field",0.245914,0.000028,,,,,,,,0x71
"CAN","data_field",0.245946,0.000028,,,,,,,,0xC5
"CAN","data_field",0.245978,0.000028,,,,,,,,0x86
"CAN","data_field",0.24601,0.000032,,,,,,,,0xFE
"CAN","data_field",0.246046,0.000028,,,,,,,,0xD3
"CAN","data_field",0.246078,0.000028,,,,,,,,0x8E
"CAN","data_field",0.24611,0.000028,,,,,,,,0x39
"CAN","data_field",0.246142,0.000028,,,,,,,,0x69
"CAN","identifier_field",0.265767,0.000052,0x00000000000000C3,,,,,,,
"CAN","control_field",0.265823,0.000012,,,0x0000000000000003,,,,,
"CAN","identifier_field",0.265867,0.000052,0x00000000000004DB,,,,,,,
"CAN","control_field",0.265923,0.000012,,,0x0000000000000003,,,,,
"CAN","data_field",0.265939,0.000028,,,,,,,,0x4D
"CAN","data_field",0.265971,0.000028,,,,,,,,0x78
"CAN","data_field",0.266003,0.000032,,,,,,,,0xFB
"CAN","crc_field",0.266039,0.000056,,,,,,0x000000000000061C,,
"CAN","ack_field",0.266103,0.000004,,,,,,,false,
"CAN","identifier_field",0.277724,0.00006,0x0000000000000300,,,,,,,
"CAN","control_field",0.277788,0.000012,,,0x0000000000000008,,,,,
"CAN","data_field",0.277804,0.000032,,,,,,,,0x03
"CAN","data_field",0.27784,0.000028,,,,,,,,0x5A
"CAN","data_field",0.277872,0.000028,,,,,,,,0x64
"CAN","data_field",0.277904,0.000028,,,,,,,,0x5A
"CAN","data_field",0.277936,0.000028,,,,,,,,0x64
"CAN","data_field",0.277968,0.000032,,,,,,,,0x00
"CAN","data_field",0.278008,0.000028,,,,,,,,0x64
"CAN","data_field",0.27804,0.000028,,,,,,,,0x30
"CAN","crc_field",0.278072,0.000064,,,,,,0x0000000000001209,,
"CAN","ack_field",0.278144,0.000004,,,,,,,true,
"CAN","identifier_field",0.278196,0.000056,0x0000000000000301,,,,,,,
"CAN","control_field",0.278256,0.000016,,,0x0000000000000003,,,,,
"CAN","data_field",0.278276,0.000032,,,,,,,,0xE2
"CAN","data_field",0.278312,0.000032,,,,,,,,0x00
"CAN","data_field",0.278348,0.000036,,,,,,,,0x00
"CAN","crc_field",0.278388,0.000056,,,,,,0x0000000000002F6A,,
"CAN","ack_field",0.278452,0.000004,,,,,,,true,
"CAN","identifier_field",0.285812,0.000052,0x0000000000000628,,,,true,,,
"CAN","control_field",0.285868,0.000012,,,0x0000000000000004,,,,,
"CAN","crc_field",0.285884,0.000056,,,,,,0x00000000000038F1,,
"CAN","ack_field",0.285948,0.000004,,,,,,,false,
"CAN","identifier_field",0.327732,0.00006,0x0000000000000300,,,,,,,
"CAN","control_field",0.327796,0.000012,,,0x0000000000000008,,,,,
"CAN","data_field",0.327812,0.000032,,,,,,,,0x03
"CAN","data_field",0.327848,0.000028,,,,,,,,0x5A
"CAN","data_field",0.32788,0.000028,,,,,,,,0x64
"CAN","data_field",0.327912,0.000028,,,,,,,,0x5A
"CAN","data_field",0.327944,0.000028,,,,,,,,0x64
"CAN","data_field",0.327976,0.000032,,,,,,,,0x00
"CAN","data_field",0.328016,0.000028,,,,,,,,0x64
"CAN","data_field",0.328048,0.000028,,,,,,,,0x21
"CAN","crc_field",0.32808,0.000064,,,,,,0x0000000000007A07,,
"CAN","ack_field",0.328152,0.000004,,,,,,,true,
"CAN","identifier_field",0.328204,0.000056,0x0000000000000301,,,,,,,
"CAN","control_field",0.328264,0.000016,,,0x0000000000000003,,,,,
"CAN","data_field",0.328284,0.000028,,,,,,,,0xB3
"CAN","data_field",0.328316,0.000032,,,,,,,,0x01
"CAN","data_field",0.328352,0.000032,,,,,,,,0x00
"CAN","crc_field",0.328388,0.00006,,,,,,0x0000000000007FC5,,
"CAN","ack_field",0.328456,0.000004,,,,,,,true,
"CAN","identifier_field",0.377737,0.00006,0x0000000000000300,,,,,,,
"CAN","control_field",0.377801,0.000012,,,0x0000000000000008,,,,,
"CAN","data_field",0.377817,0.000032,,,,,,,,0x03
"CAN","data_field",0.377853,0.000028,,,,,,,,0x5A
"CAN","data_field",0.377885,0.000028,,,,,,,,0x64
"CAN","data_field",0.377917,0.000028,,,,,,,,0x5A
"CAN","data_field",0.377949,0.000028,,,,,,,,0x64
"CAN","data_field",0.377981,0.000032,,,,,,,,0x00
"CAN","data_field",0.378021,0.000028,,,,,,,,0x64
"CAN","data_field",0.378053,0.000028,,,,,,,,0x32
"CAN","crc_field",0.378085,0.000056,,,,,,0x0000000000005CA2,,
"CAN","ack_field",0.378149,0.000004,,,,,,,true,
"CAN","identifier_field",0.378201,0.000056,0x0000000000000301,,,,,,,
"CAN","control_field",0.378261,0.000016,,,0x0000000000000003,,,,,
"CAN","data_field",0.378281,0.000028,,,,,,,,0x6B
"CAN","data_field",0.378313,0.000032,,,,,,,,0x02
"CAN","data_field",0.378349,0.000032,,,,,,,,0x00
"CAN","crc_field",0.378385,0.000056,,,,,,0x0000000000004E8A,,
"CAN","ack_field",0.378449,0.000004,,,,,,,true,
"CAN","identifier_field",0.427741,0.00006,0x0000000000000300,,,,,,,
"CAN","control_field",0.427805,0.000012,,,0x0000000000000008,,,,,
"CAN","data_field",0.427821,0.000032,,,,,,,,0x03
"CAN","data_field",0.427857,0.000028,,,,,,,,0x5A
"CAN","data_field",0.427889,0.000028,,,,,,,,0x64
"CAN","data_field",0.427921,0.000028,,,,,,,,0x5A
"CAN","data_field",0.427953,0.000028,,,,,,,,0x64
"CAN","data_field",0.427985,0.000032,,,,,,,,0x00
"CAN","data_field",0.428025,0.000028,,,,,,,,0x64
"CAN","data_field",0.428057,0.000028,,,,,,,,0x23
"CAN","crc_field",0.428089,0.000056,,,,,,0x00000000000034AC,,
"CAN","ack_field",0.428153,0.000004,,,,,,,true,
"CAN","identifier_field",0.428205,0.000056,0x0000000000000301,,,,,,,
"CAN","control_field",0.428265,0.000016,,,0x0000000000000003,,,,,
"CAN","data_field",0.428285,0.000028,,,,,,,,0x96
"CAN","data_field",0.428317,0.000032,,,,,,,,0x03
"CAN","data_field",0.428353,0.000032,,,,,,,,0x00
"CAN","crc_field",0.428389,0.00006,,,,,,0x0000000000000AB9,,
"CAN","ack_field",0.428457,0.000004,,,,,,,true,
"CAN","identifier_field",0.477749,0.00006,0x0000000000000300,,,,,,,
"CAN","control_field",0.477813,0.000012,,,0x0000000000000008,,,,,
"CAN","data_field",0.477829,0.000032,,,,,,,,0x03
"CAN","data_field",0.477865,0.000028,,,,,,,,0x5A
"CAN","data_field",0.477897,0.000028,,,,,,,,0x64
"CAN","data_field",0.477929,0.000028,,,,,,,,0x5A
"CAN","data_field",0.477961,0.000028,,,,,,,,0x64
"CAN","data_field",0.477993,0.000032,,,,,,,,0x00
"CAN","data_field",0.478033,0.000028,,,,,,,,0x64
"CAN","data_field",0.478065,0.000028,,,,,,,,0x34
"CAN","crc_field",0.478097,0.000056,,,,,,0x0000000000004AC6,,
"CAN","ack_field",0.478161,0.000004,,,,,,,true,
"CAN","identifier_field",0.478213,0.000056,0x0000000000000301,,,,,,,
"CAN","control_field",0.478273,0.000016,,,0x0000000000000003,,,,,
"CAN","data_field",0.478293,0.000032,,,,,,,,0x03
"CAN","data_field",0.478329,0.000032,,,,,,,,0x04
"CAN","data_field",0.478365,0.000032,,,,,,,,0x00
"CAN","crc_field",0.478405,0.000056,,,,,,0x0000000000000A50,,
"CAN","ack_field",0.478469,0.000004,,,,,,,true,
"CAN","identifier_field",0.52775,0.00006,0x0000000000000300,,,,,,,
"CAN","control_field",0.527814,0.000012,,,0x0000000000000008,,,,,
"CAN","data_field",0.52783,0.000032,,,,,,,,0x03
"CAN","data_field",0.527866,0.000028,,,,,,,,0x5A
"CAN","data_field",0.527898,0.000028,,,,,,,,0x64
"CAN","data_field",0.52793,0.000028,,,,,,,,0x5A
"CAN","data_field",0.527962,0.000028,,,,,,,,0x64
"CAN","data_field",0.527994,0.000032,,,,,,,,0x00
"CAN","data_field",0.528034,0.000028,,,,,,,,0x64
"CAN","data_field",0.528066,0.000028,,,,,,,,0x25
"CAN","crc_field",0.528098,0.000056,,,,,,0x00000000000022C8,,
"CAN","ack_field",0.528162,0.000004,,,,,,,true,
"CAN","identifier_field",0.528214,0.000056,0x0000000000000301,,,,,,,
"CAN","control_field",0.528274,0.000016,,,0x0000000000000003,,,,,
"CAN","data_field",0.528294,0.000028,,,,,,,,0x54
"CAN","data_field",0.528326,0.000032,,,,,,,,0x05
"CAN","data_field",0.528362,0.000032,,,,,,,,0x00
"CAN","crc_field",0.528398,0.000056,,,,,,0x000000000000342C,,
"CAN","ack_field",0.528462,0.000004,,,,,,,true,
"CAN","identifier_field",0.566488,0.000052,0x00000000000005CB,,,,true,,,
"CAN","control_field",0.566544,0.000012,,,0x0000000000000007,,,,,
"CAN","identifier_field",0.56659,0.000056,0x00000000000003EE,,,,,,,
"CAN","control_field",0.56665,0.000012,,,0x000000000000000D,,,,,
"CAN","data_field",0.566666,0.000028,,,,,,,,0x78
"CAN","data_field",0.566698,0.000028,,,,,,,,0xF3
"CAN","identifier_field",0.577755,0.00006,0x0000000000000300,,,,,,,
"CAN","control_field",0.577819,0.000012,,,0x0000000000000008,,,,,
"CAN","data_field",0.577835,0.000032,,,,,,,,0x03
"CAN","data_field",0.577871,0.000028,,,,,,,,0x5A
"CAN","data_field",0.577903,0.000028,,,,,,,,0x64
"CAN","data_field",0.577935,0.000028,,,,,,,,0x5A
"CAN","data_field",0.577967,0.000028,,,,,,,,0x64
"CAN","data_field",0.577999,0.000032,,,,,,,,0x00
"CAN","data_field",0.578039,0.000028,,,,,,,,0x64
"CAN","data_field",0.578071,0.000028,,,,,,,,0x36
"CAN","crc_field",0.578103,0.00006,,,,,,0x000000000000046D,,
"CAN","ack_field",0.578171,0.000004,,,,,,,true,
"CAN","identifier_field",0.578223,0.000056,0x0000000000000301,,,,,,,
"CAN","control_field",0.578283,0.000016,,,0x0000000000000003,,,,,
"CAN","data_field",0.578303,0.000032,,,,,,,,0xF5
"CAN","data_field",0.578339,0.000032,,,,,,,,0x06
"CAN","data_field",0.578375,0.000032,,,,,,,,0x00
"CAN","crc_field",0.578411,0.00006,,,,,,0x0000000000004168,,
"CAN","ack_field",0.578479,0.000004,,,,,,,true,
"CAN","identifier_field",0.586578,0.000056,0x000000000000071F,,,,,,,
"CAN","control_field",0.586638,0.000012,,,0x000000000000000B,,,,,
"CAN","identifier_field",0.628541,0.00006,0x0000000000000300,,,,,,,
"CAN","control_field",0.628605,0.000012,,,0x0000000000000008,,,,,
"CAN","data_field",0.628621,0.000032,,,,,,,,0x03
"CAN","data_field",0.628657,0.000028,,,,,,,,0x5A
"CAN","data_field",0.628689,0.000028,,,,,,,,0x64
"CAN","data_field",0.628721,0.000028,,,,,,,,0x5A
"CAN","data_field",0.628753,0.000028,,,,,,,,0x64
"CAN","data_field",0.628785,0.000032,,,,,,,,0x00
"CAN","data_field",0.628825,0.000028,,,,,,,,0x64
"CAN","data_field",0.628857,0.000028,,,,,,,,0x27
"CAN","crc_field",0.628889,0.00006,,,,,,0x0000000000006C63,,
"CAN","ack_field",0.628957,0.000004,,,,,,,true,
"CAN","identifier_field",0.629009,0.000056,0x0000000000000301,,,,,,,
"CAN","control_field",0.629069,0.000016,,,0x0000000000000003,,,,,
"CAN","data_field",0.629089,0.000028,,,,,,,,0xB8
"CAN","data_field",0.629121,0.000032,,,,,,,,0x07
"CAN","data_field",0.629157,0.000032,,,,,,,,0x00
"CAN","crc_field",0.629193,0.000056,,,,,,0x0000000000006ADB,,
"CAN","ack_field",0.629257,0.000004,,,,,,,true,
"CAN","identifier_field",0.666851,0.000052,0x00000000000004E7,,,,true,,,
"CAN","control_field",0.666907,0.000012,,,0x000000000000000F,,,,,
"CAN","identifier_field",0.677766,0.00006,0x0000000000000300,,,,,,,
"CAN","control_field",0.67783,0.000012,,,0x0000000000000008,,,,,
"CAN","data_field",0.677846,0.000032,,,,,,,,0x03
"CAN","data_field",0.677882,0.000028,,,,,,,,0x5A
"CAN","data_field",0.677914,0.000028,,,,,,,,0x64
"CAN","data_field",0.677946,0.000028,,,,,,,,0x5A
"CAN","data_field",0.677978,0.000028,,,,,,,,0x64
"CAN","data_field",0.67801,0.000032,,,,,,,,0x00
"CAN","data_field",0.67805,0.000028,,,,,,,,0x64
"CAN","data_field",0.678082,0.000028,,,,,,,,0xB8
"CAN","crc_field",0.678114,0.00006,,,,,,0x000000000000441D,,
"CAN","ack_field",0.678182,0.000004,,,,,,,true,
"CAN","identifier_field",0.678234,0.000056,0x0000000000000301,,,,,,,
"CAN","control_field",0.678294,0.000016,,,0x0000000000000003,,,,,
"CAN","data_field",0.678314,0.000032,,,,,,,,0x80
"CAN","data_field",0.67835,0.000032,,,,,,,,0x08
"CAN","data_field",0.678386,0.000036,,,,,,,,0x00
"CAN","crc_field",0.678426,0.000056,,,,,,0x0000000000007745,,
"CAN","ack_field",0.67849,0.000004,,,,,,,true,
"CAN","identifier_field",0.727772,0.00006,0x0000000000000300,,,,,,,
"CAN","control_field",0.727836,0.000012,,,0x0000000000000008,,,,,
"CAN","data_field",0.727852,0.000032,,,,,,,,0x03
"CAN","data_field",0.727888,0.000028,,,,,,,,0x5A
"CAN","data_field",0.72792,0.000028,,,,,,,,0x64
"CAN","data_field",0.727952,0.000028,,,,,,,,0x5A
"CAN","data_field",0.727984,0.000028,,,,,,,,0x64
"CAN","data_field",0.728016,0.000032,,,,,,,,0x00
"CAN","data_field",0.728056,0.000028,,,,,,,,0x64
"CAN","data_field",0.728088,0.000028,,,,,,,,0xA9
"CAN","crc_field",0.72812,0.00006,,,,,,0x0000000000002C13,,
"CAN","ack_field",0.728188,0.000004,,,,,,,true,
"CAN","identifier_field",0.72824,0.000056,0x0000000000000301,,,,,,,
"CAN","control_field",0.7283,0.000016,,,0x0000000000000003,,,,,
"CAN","data_field",0.72832,0.000028,,,,,,,,0x88
"CAN","data_field",0.728352,0.000032,,,,,,,,0x09
"CAN","data_field",0.728388,0.000032,,,,,,,,0x00
"CAN","crc_field",0.728424,0.000064,,,,,,0x000000000000603E,,
"CAN","ack_field",0.728496,0.000004,,,,,,,true,
"CAN","identifier_field",0.77778,0.00006,0x0000000000000300,,,,,,,
"CAN","control_field",0.777844,0.000012,,,0x0000000000000008,,,,,
"CAN","data_field",0.77786,0.000032,,,,,,,,0x03
"CAN","data_field",0.777896,0.000028,,,,,,,,0x5A
"CAN","data_field",0.777928,0.000028,,,,,,,,0x64
"CAN","data_field",0.77796,0.000028,,,,,,,,0x5A
"CAN","data_field",0.777992,0.000028,,,,,,,,0x64
"CAN","data_field",0.778024,0.000032,,,,,,,,0x00
"CAN","data_field",0.778064,0.000028,,,,,,,,0x64
"CAN","data_field",0.778096,0.000028,,,,,,,,0xBA
"CAN","crc_field",0.778128,0.000056,,,,,,0x0000000000000AB6,,
"CAN","ack_field",0.778192,0.000004,,,,,,,true,
"CAN","identifier_field",0.778244,0.000056,0x0000000000000301,,,,,,,
"CAN","control_field",0.778304,0.000016,,,0x0000000000000003,,,,,
"CAN","data_field",0.778324,0.000032,,,,,,,,0xC6
"CAN","data_field",0.77836,0.000032,,,,,,,,0x0A
"CAN","data_field",0.778396,0.000032,,,,,,,,0x00
"CAN","crc_field",0.778432,0.00006,,,,,,0x00000000000053FD,,
"CAN","ack_field",0.7785,0.000004,,,,,,,true,
