name,type,start_time,duration,"identifier","num_data_bytes","crc","ack","data"
"CAN","identifier_field",0.012926,0.00006,0x0000000000000300,,,,
"CAN","control_field",0.01299,0.000012,,0x0000000000000008,,,
"CAN","data_field",0.013006,0.000032,,,,,0x03
"CAN","data_field",0.013042,0.000028,,,,,0x5A
"CAN","data_field",0.013074,0.000028,,,,,0x64
"CAN","data_field",0.013106,0.000028,,,,,0x5A
"CAN","data_field",0.013138,0.000028,,,,,0x14
"CAN","data_field",0.01317,0.000032,,,,,0x00
"CAN","data_field",0.01321,0.000028,,,,,0x14
"CAN","data_field",0.013242,0.000028,,,,,0x57
"CAN","crc_field",0.013274,0.00006,,,0x0000000000005E06,,
"CAN","ack_field",0.013342,0.000004,,,,true,
"CAN","identifier_field",0.013394,0.000056,0x0000000000000301,,,,
"CAN","control_field",0.013454,0.000016,,0x0000000000000003,,,
"CAN","data_field",0.013474,0.000028,,,,,0xB8
"CAN","data_field",0.013506,0.000032,,,,,0x07
"CAN","data_field",0.013542,0.000032,,,,,0x00
"CAN","crc_field",0.013578,0.000056,,,0x0000000000006ADB,,
"CAN","ack_field",0.013642,0.000004,,,,true,
"CAN","identifier_field",0.062934,0.00006,0x0000000000000300,,,,
"CAN","control_field",0.062998,0.000012,,0x0000000000000008,,,
"CAN","data_field",0.063014,0.000032,,,,,0x03
"CAN","data_field",0.06305,0.000028,,,,,0x5A
"CAN","data_field",0.063082,0.000028,,,,,0x64
"CAN","data_field",0.063114,0.000028,,,,,0x5A
"CAN","data_field",0.063146,0.000028,,,,,0x14
"CAN","data_field",0.063178,0.000032,,,,,0x00
"CAN","data_field",0.063218,0.000028,,,,,0x14
"CAN","data_field",0.06325,0.000028,,,,,0xB8
"CAN","crc_field",0.063282,0.00006,,,0x0000000000007304,,
"CAN","ack_field",0.06335,0.000004,,,,true,
"CAN","identifier_field",0.063402,0.000056,0x0000000000000301,,,,
"CAN","control_field",0.063462,0.000016,,0x0000000000000003,,,
"CAN","data_field",0.063482,0.000032,,,,,0x80
"CAN","data_field",0.063518,0.000032,,,,,0x08
"CAN","data_field",0.063554,0.000036,,,,,0x00
"CAN","crc_field",0.063594,0.000056,,,0x0000000000007745,,
"CAN","ack_field",0.063658,0.000004,,,,true,
"CAN","identifier_field",0.112941,0.00006,0x0000000000000300,,,,
"CAN","control_field",0.113005,0.000012,,0x0000000000000008,,,
"CAN","data_field",0.113021,0.000032,,,,,0x03
"CAN","data_field",0.113057,0.000028,,,,,0x5A
"CAN","data_field",0.113089,0.000028,,,,,0x64
"CAN","data_field",0.113121,0.000028,,,,,0x5A
"CAN","data_field",0.113153,0.000028,,,,,0x14
"CAN","data_field",0.113185,0.000032,,,,,0x00
"CAN","data_field",0.113225,0.000028,,,,,0x14
"CAN","data_field",0.113257,0.000028,,,,,0xB9
"CAN","crc_field",0.113289,0.000056,,,0x000000000000369D,,
"CAN","ack_field",0.113353,0.000004,,,,true,
"CAN","identifier_field",0.113405,0.000056,0x0000000000000301,,,,
"CAN","control_field",0.113465,0.000016,,0x0000000000000003,,,
"CAN","data_field",0.113485,0.000028,,,,,0x88
"CAN","data_field",0.113517,0.000032,,,,,0x09
"CAN","data_field",0.113553,0.000032,,,,,0x00
"CAN","crc_field",0.113589,0.000064,,,0x000000000000603E,,
"CAN","ack_field",0.113661,0.000004,,,,true,
"CAN","identifier_field",0.163668,0.00006,0x0000000000000300,,,,
"CAN","control_field",0.163732,0.000012,,0x0000000000000008,,,
"CAN","data_field",0.163748,0.000032,,,,,0x03
"CAN","data_field",0.163784,0.000028,,,,,0x5A
"CAN","data_field",0.163816,0.000028,,,,,0x64
"CAN","data_field",0.163848,0.000028,,,,,0x5A
"CAN","data_field",0.16388,0.000028,,,,,0x14
"CAN","data_field",0.163912,0.000032,,,,,0x00
"CAN","data_field",0.163952,0.000028,,,,,0x14
"CAN","data_field",0.163984,0.000028,,,,,0x9A
"CAN","crc_field",0.164016,0.00006,,,0x0000000000006681,,
"CAN","ack_field",0.164084,0.000004,,,,true,
"CAN","identifier_field",0.164136,0.000056,0x0000000000000301,,,,
"CAN","control_field",0.164196,0.000016,,0x0000000000000003,,,
"CAN","data_field",0.164216,0.000032,,,,,0xC6
"CAN","data_field",0.164252,0.000032,,,,,0x0A
"CAN","data_field",0.164288,0.000032,,,,,0x00
"CAN","crc_field",0.164324,0.00006,,,0x00000000000053FD,,
"CAN","ack_field",0.164392,0.000004,,,,true,
"CAN","identifier_field",0.164492,0.000056,0x0000000000000404,,,,
"CAN","control_field",0.164556,0.000012,,0x0000000000000002,,,
"CAN","data_field",0.164572,0.000028,,,,,0x4A
"CAN","data_field",0.164604,0.000032,,,,,0x00
"CAN","crc_field",0.16464,0.00006,,,0x0000000000003A27,,
"CAN","ack_field",0.164708,0.000004,,,,true,
"CAN","identifier_field",0.194032,0.000056,0x0000000000000404,,,,
"CAN","control_field",0.194096,0.000012,,0x0000000000000002,,,
"CAN","data_field",0.194112,0.000032,,,,,0x02
"CAN","data_field",0.194148,0.000028,,,,,0x30
"CAN","crc_field",0.19418,0.00006,,,0x0000000000002964,,
"CAN","ack_field",0.194248,0.000004,,,,true,
"CAN","identifier_field",0.212952,0.00006,0x0000000000000300,,,,
"CAN","control_field",0.213016,0.000012,,0x0000000000000008,,,
"CAN","data_field",0.213032,0.000032,,,,,0x03
"CAN","data_field",0.213068,0.000028,,,,,0x5A
"CAN","data_field",0.2131,0.000028,,,,,0x64
"CAN","data_field",0.213132,0.000028,,,,,0x5A
"CAN","data_field",0.213164,0.000028,,,,,0x14
"CAN","data_field",0.213196,0.000032,,,,,0x00
"CAN","data_field",0.213236,0.000028,,,,,0x14
"CAN","data_field",0.213268,0.000028,,,,,0x9B
"CAN","crc_field",0.2133,0.000056,,,0x0000000000002318,,
"CAN","ack_field",0.213364,0.000004,,,,true,
"CAN","identifier_field",0.213416,0.000056,0x0000000000000301,,,,
"CAN","control_field",0.213476,0.000016,,0x0000000000000003,,,
"CAN","data_field",0.213496,0.000028,,,,,0x43
"CAN","data_field",0.213528,0.000028,,,,,0x0B
"CAN","data_field",0.21356,0.000032,,,,,0x00
"CAN","crc_field",0.213596,0.000056,,,0x00000000000023D1,,
"CAN","ack_field",0.21366,0.000004,,,,true,
"CAN","identifier_field",0.225276,0.000056,0x0000000000000404,,,,
"CAN","control_field",0.22534,0.000012,,0x0000000000000002,,,
"CAN","data_field",0.225356,0.000028,,,,,0x44
"CAN","data_field",0.225388,0.000032,,,,,0x00
"CAN","crc_field",0.225428,0.000064,,,0x000000000000503E,,
"CAN","ack_field",0.2255,0.000004,,,,true,
"CAN","identifier_field",0.261852,0.000056,0x0000000000000404,,,,
"CAN","control_field",0.261916,0.000012,,0x0000000000000002,,,
"CAN","data_field",0.261932,0.000032,,,,,0x01
"CAN","data_field",0.261968,0.000032,,,,,0x00
"CAN","crc_field",0.262004,0.000056,,,0x000000000000562E,,
"CAN","ack_field",0.262068,0.000004,,,,true,
"CAN","identifier_field",0.263957,0.00006,0x0000000000000300,,,,
"CAN","control_field",0.264021,0.000012,,0x0000000000000008,,,
"CAN","data_field",0.264037,0.000032,,,,,0x03
"CAN","data_field",0.264073,0.000028,,,,,0x5A
"CAN","data_field",0.264105,0.000028,,,,,0x64
"CAN","data_field",0.264137,0.000028,,,,,0x5A
"CAN","data_field",0.264169,0.000028,,,,,0x14
"CAN","data_field",0.264201,0.000032,,,,,0x00
"CAN","data_field",0.264241,0.000028,,,,,0x14
"CAN","data_field",0.264273,0.000032,,,,,0xFC
"CAN","crc_field",0.264309,0.00006,,,0x000000000000580E,,
"CAN","ack_field",0.264377,0.000004,,,,true,
"CAN","identifier_field",0.264429,0.000056,0x0000000000000301,,,,
"CAN","control_field",0.264489,0.000016,,0x0000000000000003,,,
"CAN","data_field",0.264509,0.000028,,,,,0xB5
"CAN","data_field",0.264541,0.000028,,,,,0x0C
"CAN","data_field",0.264573,0.000032,,,,,0x00
"CAN","crc_field",0.264613,0.00006,,,0x00000000000072FC,,
"CAN","ack_field",0.264681,0.000004,,,,true,
"CAN","identifier_field",0.287817,0.000056,0x0000000000000404,,,,
"CAN","control_field",0.287881,0.000012,,0x0000000000000002,,,
"CAN","data_field",0.287897,0.000028,,,,,0xA3
"CAN","data_field",0.287929,0.000032,,,,,0x01
"CAN","crc_field",0.287965,0.000056,,,0x0000000000000AA6,,
"CAN","ack_field",0.288029,0.000004,,,,true,
"CAN","identifier_field",0.313961,0.00006,0x0000000000000300,,,,
"CAN","control_field",0.314025,0.000012,,0x0000000000000008,,,
"CAN","data_field",0.314041,0.000032,,,,,0x03
"CAN","data_field",0.314077,0.000028,,,,,0x5A
"CAN","data_field",0.314109,0.000028,,,,,0x64
"CAN","data_field",0.314141,0.000028,,,,,0x5A
"CAN","data_field",0.314173,0.000028,,,,,0x14
"CAN","data_field",0.314205,0.000032,,,,,0x00
"CAN","data_field",0.314245,0.000028,,,,,0x14
"CAN","data_field",0.314277,0.000032,,,,,0xFD
"CAN","crc_field",0.314313,0.000056,,,0x0000000000001D97,,
"CAN","ack_field",0.314377,0.000004,,,,true,
"CAN","identifier_field",0.314429,0.000056,0x0000000000000301,,,,
"CAN","control_field",0.314489,0.000016,,0x0000000000000003,,,
"CAN","data_field",0.314509,0.000028,,,,,0x4E
"CAN","data_field",0.314541,0.000032,,,,,0x0D
"CAN","data_field",0.314577,0.000032,,,,,0x00
"CAN","crc_field",0.314613,0.00006,,,0x000000000000581C,,
"CAN","ack_field",0.314681,0.000004,,,,true,
"CAN","identifier_field",0.319038,0.000056,0x0000000000000404,,,,
"CAN","control_field",0.319102,0.000012,,0x0000000000000002,,,
"CAN","data_field",0.319118,0.000028,,,,,0x20
"CAN","data_field",0.319154,0.000032,,,,,0x00
"CAN","crc_field",0.31919,0.00006,,,0x0000000000007EC6,,
"CAN","ack_field",0.319258,0.000004,,,,true,
"CAN","identifier_field",0.35029,0.000056,0x0000000000000404,,,,
"CAN","control_field",0.350354,0.000012,,0x0000000000000002,,,
"CAN","data_field",0.35037,0.000028,,,,,0x21
"CAN","data_field",0.350402,0.000032,,,,,0x00
"CAN","crc_field",0.350438,0.000056,,,0x0000000000003AE0,,
"CAN","ack_field",0.350506,0.000004,,,,true,
"CAN","identifier_field",0.363965,0.00006,0x0000000000000300,,,,
"CAN","control_field",0.364029,0.000012,,0x0000000000000008,,,
"CAN","data_field",0.364045,0.000032,,,,,0x03
"CAN","data_field",0.364081,0.000028,,,,,0x5A
"CAN","data_field",0.364113,0.000028,,,,,0x64
"CAN","data_field",0.364145,0.000028,,,,,0x5A
"CAN","data_field",0.364177,0.000028,,,,,0x14
"CAN","data_field",0.364209,0.000032,,,,,0x00
"CAN","data_field",0.364249,0.000028,,,,,0x14
"CAN","data_field",0.364281,0.000028,,,,,0xDE
"CAN","crc_field",0.364313,0.000056,,,0x0000000000004D8B,,
"CAN","ack_field",0.364377,0.000004,,,,true,
"CAN","identifier_field",0.364429,0.000056,0x0000000000000301,,,,
"CAN","control_field",0.364489,0.000016,,0x0000000000000003,,,
"CAN","data_field",0.364509,0.000028,,,,,0x1D
"CAN","data_field",0.364541,0.000028,,,,,0x0E
"CAN","data_field",0.364573,0.000032,,,,,0x00
"CAN","crc_field",0.364609,0.00006,,,0x00000000000060D7,,
"CAN","ack_field",0.364677,0.000004,,,,true,
"CAN","identifier_field",0.381551,0.000056,0x0000000000000404,,,,
"CAN","control_field",0.381615,0.000012,,0x0000000000000002,,,
"CAN","data_field",0.381631,0.000028,,,,,0x22
"CAN","data_field",0.381663,0.000032,,,,,0x00
"CAN","crc_field",0.381699,0.00006,,,0x0000000000003313,,
"CAN","ack_field",0.381767,0.000004,,,,true,
"CAN","identifier_field",0.413969,0.00006,0x0000000000000300,,,,
"CAN","control_field",0.414033,0.000012,,0x0000000000000008,,,
"CAN","data_field",0.414049,0.000032,,,,,0x03
"CAN","data_field",0.414085,0.000028,,,,,0x5A
"CAN","data_field",0.414117,0.000028,,,,,0x64
"CAN","data_field",0.414149,0.000028,,,,,0x5A
"CAN","data_field",0.414181,0.000028,,,,,0x14
"CAN","data_field",0.414213,0.000032,,,,,0x00
"CAN","data_field",0.414253,0.000028,,,,,0x14
"CAN","data_field",0.414285,0.000028,,,,,0xDF
"CAN","crc_field",0.414321,0.00006,,,0x0000000000000812,,
"CAN","ack_field",0.414389,0.000004,,,,true,
"CAN","identifier_field",0.414441,0.000056,0x0000000000000301,,,,
"CAN","control_field",0.414501,0.000016,,0x0000000000000003,,,
"CAN","data_field",0.414521,0.000032,,,,,0xE8
"CAN","data_field",0.414557,0.000032,,,,,0x0F
"CAN","data_field",0.414593,0.000032,,,,,0x00
"CAN","crc_field",0.414629,0.000056,,,0x00000000000077B9,,
"CAN","ack_field",0.414693,0.000004,,,,true,
"CAN","identifier_field",0.418326,0.000056,0x0000000000000404,,,,
"CAN","control_field",0.41839,0.000012,,0x0000000000000002,,,
"CAN","data_field",0.418406,0.000028,,,,,0x23
"CAN","data_field",0.418438,0.000032,,,,,0x00
"CAN","crc_field",0.418474,0.000056,,,0x0000000000007735,,
"CAN","ack_field",0.418538,0.000004,,,,true,
"CAN","identifier_field",0.444072,0.000056,0x0000000000000404,,,,
"CAN","control_field",0.444136,0.000012,,0x0000000000000002,,,
"CAN","data_field",0.444152,0.000028,,,,,0x24
"CAN","data_field",0.444184,0.000032,,,,,0x00
"CAN","crc_field",0.444224,0.000064,,,0x00000000000020F5,,
"CAN","ack_field",0.444296,0.000004,,,,true,
"CAN","identifier_field",0.463976,0.00006,0x0000000000000300,,,,
"CAN","control_field",0.46404,0.000012,,0x0000000000000008,,,
"CAN","data_field",0.464056,0.000032,,,,,0x03
"CAN","data_field",0.464092,0.000028,,,,,0x5A
"CAN","data_field",0.464124,0.000028,,,,,0x64
"CAN","data_field",0.464156,0.000028,,,,,0x5A
"CAN","data_field",0.464188,0.000028,,,,,0x14
"CAN","data_field",0.46422,0.000032,,,,,0x00
"CAN","data_field",0.46426,0.000028,,,,,0x14
"CAN","data_field",0.464292,0.000028,,,,,0x30
"CAN","crc_field",0.464324,0.00006,,,0x0000000000002510,,
"CAN","ack_field",0.464392,0.000004,,,,true,
"CAN","identifier_field",0.464444,0.000056,0x0000000000000301,,,,
"CAN","control_field",0.464504,0.000016,,0x0000000000000003,,,
"CAN","data_field",0.464524,0.000032,,,,,0xE2
"CAN","data_field",0.46456,0.000032,,,,,0x00
"CAN","data_field",0.464596,0.000036,,,,,0x00
"CAN","crc_field",0.464636,0.000056,,,0x0000000000002F6A,,
"CAN","ack_field",0.4647,0.000004,,,,true,
"CAN","identifier_field",0.475297,0.000056,0x0000000000000404,,,,
"CAN","control_field",0.475361,0.000012,,0x0000000000000002,,,
"CAN","data_field",0.475377,0.000028,,,,,0x25
"CAN","data_field",0.475409,0.000032,,,,,0x00
"CAN","crc_field",0.475445,0.000056,,,0x00000000000064D3,,
"CAN","ack_field",0.475509,0.000004,,,,true,
"CAN","identifier_field",0.506367,0.000056,0x0000000000000404,,,,
"CAN","control_field",0.506431,0.000012,,0x0000000000000002,,,
"CAN","data_field",0.506447,0.000028,,,,,0x26
"CAN","data_field",0.506479,0.000032,,,,,0x00
"CAN","crc_field",0.506515,0.000056,,,0x0000000000006D20,,
"CAN","ack_field",0.506583,0.000004,,,,true,
"CAN","identifier_field",0.513982,0.00006,0x0000000000000300,,,,
"CAN","control_field",0.514046,0.000012,,0x0000000000000008,,,
"CAN","data_field",0.514062,0.000032,,,,,0x03
"CAN","data_field",0.514098,0.000028,,,,,0x5A
"CAN","data_field",0.51413,0.000028,,,,,0x64
"CAN","data_field",0.514162,0.000028,,,,,0x5A
"CAN","data_field",0.514194,0.000028,,,,,0x14
"CAN","data_field",0.514226,0.000032,,,,,0x00
"CAN","data_field",0.514266,0.000028,,,,,0x14
"CAN","data_field",0.514298,0.000028,,,,,0x31
"CAN","crc_field",0.51433,0.00006,,,0x0000000000006089,,
"CAN","ack_field",0.514398,0.000004,,,,true,
"CAN","identifier_field",0.51445,0.000056,0x0000000000000301,,,,
"CAN","control_field",0.51451,0.000016,,0x0000000000000003,,,
"CAN","data_field",0.51453,0.000028,,,,,0xB3
"CAN","data_field",0.514562,0.000032,,,,,0x01
"CAN","data_field",0.514598,0.000032,,,,,0x00
"CAN","crc_field",0.514634,0.00006,,,0x0000000000007FC5,,
"CAN","ack_field",0.514702,0.000004,,,,true,
"CAN","identifier_field",0.537575,0.000056,0x0000000000000404,,,,
"CAN","control_field",0.537639,0.000012,,0x0000000000000002,,,
"CAN","data_field",0.537655,0.000028,,,,,0x27
"CAN","data_field",0.537687,0.000032,,,,,0x00
"CAN","crc_field",0.537723,0.00006,,,0x0000000000002906,,
"CAN","ack_field",0.537791,0.000004,,,,true,
"CAN","identifier_field",0.563986,0.00006,0x0000000000000300,,,,
"CAN","control_field",0.56405,0.000012,,0x0000000000000008,,,
"CAN","data_field",0.564066,0.000032,,,,,0x03
"CAN","data_field",0.564102,0.000028,,,,,0x5A
"CAN","data_field",0.564134,0.000028,,,,,0x64
"CAN","data_field",0.564166,0.000028,,,,,0x5A
"CAN","data_field",0.564198,0.000028,,,,,0x14
"CAN","data_field",0.56423,0.000032,,,,,0x00
"CAN","data_field",0.56427,0.000028,,,,,0x14
"CAN","data_field",0.564302,0.000032,,,,,0x12
"CAN","crc_field",0.564338,0.000056,,,0x0000000000003095,,
"CAN","ack_field",0.564402,0.000004,,,,true,
"CAN","identifier_field",0.564454,0.000056,0x0000000000000301,,,,
"CAN","control_field",0.564514,0.000016,,0x0000000000000003,,,
"CAN","data_field",0.564534,0.000028,,,,,0x6B
"CAN","data_field",0.564566,0.000032,,,,,0x02
"CAN","data_field",0.564602,0.000032,,,,,0x00
"CAN","crc_field",0.564638,0.000056,,,0x0000000000004E8A,,
"CAN","ack_field",0.564702,0.000004,,,,true,
"CAN","identifier_field",0.574859,0.000056,0x0000000000000404,,,,
"CAN","control_field",0.574923,0.000012,,0x0000000000000002,,,
"CAN","data_field",0.574939,0.000028,,,,,0x4C
"CAN","data_field",0.574971,0.000032,,,,,0x00
"CAN","crc_field",0.575011,0.00006,,,0x00000000000029C1,,
"CAN","ack_field",0.575079,0.000004,,,,true,
"CAN","identifier_field",0.600097,0.000056,0x0000000000000404,,,,
"CAN","control_field",0.600161,0.000012,,0x0000000000000002,,,
"CAN","data_field",0.600177,0.000028,,,,,0x46
"CAN","data_field",0.600209,0.000032,,,,,0x00
"CAN","crc_field",0.600245,0.00006,,,0x0000000000001DEB,,
"CAN","ack_field",0.600313,0.000004,,,,true,
"CAN","identifier_field",0.61399,0.00006,0x0000000000000300,,,,
"CAN","control_field",0.614054,0.000012,,0x0000000000000008,,,
"CAN","data_field",0.61407,0.000032,,,,,0x03
"CAN","data_field",0.614106,0.000028,,,,,0x5A
"CAN","data_field",0.614138,0.000028,,,,,0x64
"CAN","data_field",0.61417,0.000028,,,,,0x5A
"CAN","data_field",0.614202,0.000028,,,,,0x14
"CAN","data_field",0.614234,0.000032,,,,,0x00
"CAN","data_field",0.614274,0.000028,,,,,0x14
"CAN","data_field",0.614306,0.000032,,,,,0x13
"CAN","crc_field",0.614342,0.00006,,,0x000000000000750C,,
"CAN","ack_field",0.61441,0.000004,,,,true,
"CAN","identifier_field",0.614462,0.000056,0x0000000000000301,,,,
"CAN","control_field",0.614522,0.000016,,0x0000000000000003,,,
"CAN","data_field",0.614542,0.000028,,,,,0x96
"CAN","data_field",0.614574,0.000032,,,,,0x03
"CAN","data_field",0.61461,0.000032,,,,,0x00
"CAN","crc_field",0.614646,0.00006,,,0x0000000000000AB9,,
"CAN","ack_field",0.614714,0.000004,,,,true,
"CAN","identifier_field",0.631359,0.000056,0x0000000000000404,,,,
"CAN","control_field",0.631423,0.000012,,0x0000000000000002,,,
"CAN","data_field",0.631439,0.000028,,,,,0x4D
"CAN","data_field",0.631471,0.000032,,,,,0x00
"CAN","crc_field",0.631507,0.000056,,,0x0000000000006DE7,,
"CAN","ack_field",0.631571,0.000004,,,,true,
"CAN","identifier_field",0.6626,0.000056,0x0000000000000404,,,,
"CAN","control_field",0.662664,0.000012,,0x0000000000000002,,,
"CAN","data_field",0.66268,0.000028,,,,,0x50
"CAN","data_field",0.662712,0.000036,,,,,0x00
"CAN","crc_field",0.662752,0.000056,,,0x000000000000386A,,
"CAN","ack_field",0.662816,0.000004,,,,true,
"CAN","identifier_field",0.663997,0.00006,0x0000000000000300,,,,
"CAN","control_field",0.664061,0.000012,,0x0000000000000008,,,
"CAN","data_field",0.664077,0.000032,,,,,0x03
"CAN","data_field",0.664113,0.000028,,,,,0x5A
"CAN","data_field",0.664145,0.000028,,,,,0x64
"CAN","data_field",0.664177,0.000028,,,,,0x5A
"CAN","data_field",0.664209,0.000028,,,,,0x14
"CAN","data_field",0.664241,0.000032,,,,,0x00
"CAN","data_field",0.664281,0.000028,,,,,0x14
"CAN","data_field",0.664313,0.000028,,,,,0x74
"CAN","crc_field",0.664345,0.00006,,,0x0000000000000E1A,,
"CAN","ack_field",0.664413,0.000004,,,,true,
"CAN","identifier_field",0.664465,0.000056,0x0000000000000301,,,,
"CAN","control_field",0.664525,0.000016,,0x0000000000000003,,,
"CAN","data_field",0.664545,0.000032,,,,,0x03
"CAN","data_field",0.664581,0.000032,,,,,0x04
"CAN","data_field",0.664617,0.000032,,,,,0x00
"CAN","crc_field",0.664657,0.000056,,,0x0000000000000A50,,
"CAN","ack_field",0.664721,0.000004,,,,true,
"CAN","identifier_field",0.693852,0.000056,0x0000000000000404,,,,
"CAN","control_field",0.693916,0.000012,,0x0000000000000002,,,
"CAN","data_field",0.693932,0.000032,,,,,0x02
"CAN","data_field",0.693968,0.000032,,,,,0x00
"CAN","crc_field",0.694004,0.00006,,,0x0000000000005FDD,,
"CAN","ack_field",0.694072,0.000004,,,,true,
"CAN","identifier_field",0.714003,0.00006,0x0000000000000300,,,,
"CAN","control_field",0.714067,0.000012,,0x0000000000000008,,,
"CAN","data_field",0.714083,0.000032,,,,,0x03
"CAN","data_field",0.714119,0.000028,,,,,0x5A
"CAN","data_field",0.714151,0.000028,,,,,0x64
"CAN","data_field",0.714183,0.000028,,,,,0x5A
"CAN","data_field",0.714215,0.000028,,,,,0x14
"CAN","data_field",0.714247,0.000032,,,,,0x00
"CAN","data_field",0.714287,0.000028,,,,,0x14
"CAN","data_field",0.714319,0.000028,,,,,0x75
