name,type,start_time,duration,"identifier","num_data_bytes","crc","ack","data"
"CAN","identifier_field",0.009106,0.00006,0x0000000000000300,,,,
"CAN","control_field",0.00917,0.000012,,0x0000000000000008,,,
"CAN","data_field",0.009186,0.000032,,,,,0x03
"CAN","data_field",0.009222,0.000028,,,,,0x5A
"CAN","data_field",0.009254,0.000028,,,,,0x64
"CAN","data_field",0.009286,0.000028,,,,,0x5A
"CAN","data_field",0.009318,0.000028,,,,,0x3C
"CAN","data_field",0.00935,0.000032,,,,,0x00
"CAN","data_field",0.00939,0.000028,,,,,0x3C
"CAN","data_field",0.009422,0.000028,,,,,0xBB
"CAN","crc_field",0.009454,0.000056,,,0x00000000000053A3,,
"CAN","ack_field",0.009518,0.000004,,,,true,
"CAN","identifier_field",0.00957,0.000056,0x0000000000000301,,,,
"CAN","control_field",0.00963,0.000016,,0x0000000000000003,,,
"CAN","data_field",0.00965,0.000028,,,,,0x43
"CAN","data_field",0.009682,0.000028,,,,,0x0B
"CAN","data_field",0.009714,0.000032,,,,,0x00
"CAN","crc_field",0.00975,0.000056,,,0x00000000000023D1,,
"CAN","ack_field",0.009814,0.000004,,,,true,
"CAN","identifier_field",0.059112,0.00006,0x0000000000000300,,,,
"CAN","control_field",0.059176,0.000012,,0x0000000000000008,,,
"CAN","data_field",0.059192,0.000032,,,,,0x03
"CAN","data_field",0.059228,0.000028,,,,,0x5A
"CAN","data_field",0.05926,0.000028,,,,,0x64
"CAN","data_field",0.059292,0.000028,,,,,0x5A
"CAN","data_field",0.059324,0.000028,,,,,0x3C
"CAN","data_field",0.059356,0.000032,,,,,0x00
"CAN","data_field",0.059396,0.000028,,,,,0x3C
"CAN","data_field",0.059428,0.000032,,,,,0xFC
"CAN","crc_field",0.059464,0.000056,,,0x000000000000739B,,
"CAN","ack_field",0.059528,0.000004,,,,true,
"CAN","identifier_field",0.059581,0.000056,0x0000000000000301,,,,
"CAN","control_field",0.059641,0.000016,,0x0000000000000003,,,
"CAN","data_field",0.059661,0.000028,,,,,0xB5
"CAN","data_field",0.059693,0.000028,,,,,0x0C
"CAN","data_field",0.059725,0.000032,,,,,0x00
"CAN","crc_field",0.059765,0.00006,,,0x00000000000072FC,,
"CAN","ack_field",0.059833,0.000004,,,,true,
"CAN","identifier_field",0.109891,0.00006,0x0000000000000300,,,,
"CAN","control_field",0.109955,0.000012,,0x0000000000000008,,,
"CAN","data_field",0.109971,0.000032,,,,,0x03
"CAN","data_field",0.110007,0.000028,,,,,0x5A
"CAN","data_field",0.110039,0.000028,,,,,0x64
"CAN","data_field",0.110071,0.000028,,,,,0x5A
"CAN","data_field",0.110103,0.000028,,,,,0x3C
"CAN","data_field",0.110135,0.000032,,,,,0x00
"CAN","data_field",0.110175,0.000028,,,,,0x3C
"CAN","data_field",0.110207,0.000032,,,,,0xFD
"CAN","crc_field",0.110243,0.00006,,,0x0000000000003602,,
"CAN","ack_field",0.110311,0.000004,,,,true,
"CAN","identifier_field",0.110364,0.000056,0x0000000000000301,,,,
"CAN","control_field",0.110424,0.000016,,0x0000000000000003,,,
"CAN","data_field",0.110444,0.000028,,,,,0x4E
"CAN","data_field",0.110476,0.000032,,,,,0x0D
"CAN","data_field",0.110512,0.000032,,,,,0x00
"CAN","crc_field",0.110548,0.00006,,,0x000000000000581C,,
"CAN","ack_field",0.110616,0.000004,,,,true,
"CAN","identifier_field",0.159122,0.00006,0x0000000000000300,,,,
"CAN","control_field",0.159186,0.000012,,0x0000000000000008,,,
"CAN","data_field",0.159202,0.000032,,,,,0x03
"CAN","data_field",0.159238,0.000028,,,,,0x5A
"CAN","data_field",0.15927,0.000028,,,,,0x64
"CAN","data_field",0.159302,0.000028,,,,,0x5A
"CAN","data_field",0.159334,0.000028,,,,,0x3C
"CAN","data_field",0.159366,0.000032,,,,,0x00
"CAN","data_field",0.159406,0.000028,,,,,0x3C
"CAN","data_field",0.159438,0.000032,,,,,0xFE
"CAN","crc_field",0.159474,0.000056,,,0x0000000000003D30,,
"CAN","ack_field",0.159538,0.000004,,,,true,
"CAN","identifier_field",0.15959,0.000056,0x0000000000000301,,,,
"CAN","control_field",0.15965,0.000016,,0x0000000000000003,,,
"CAN","data_field",0.15967,0.000028,,,,,0x1D
"CAN","data_field",0.159702,0.000028,,,,,0x0E
"CAN","data_field",0.159734,0.000032,,,,,0x00
"CAN","crc_field",0.15977,0.00006,,,0x00000000000060D7,,
"CAN","ack_field",0.159838,0.000004,,,,true,
"CAN","identifier_field",0.209128,0.00006,0x0000000000000300,,,,
"CAN","control_field",0.209192,0.000012,,0x0000000000000008,,,
"CAN","data_field",0.209208,0.000032,,,,,0x03
"CAN","data_field",0.209244,0.000028,,,,,0x5A
"CAN","data_field",0.209276,0.000028,,,,,0x64
"CAN","data_field",0.209308,0.000028,,,,,0x5A
"CAN","data_field",0.20934,0.000028,,,,,0x3C
"CAN","data_field",0.209372,0.000032,,,,,0x00
"CAN","data_field",0.209412,0.000028,,,,,0x3C
"CAN","data_field",0.209444,0.000032,,,,,0xFF
"CAN","crc_field",0.20948,0.00006,,,0x00000000000078A9,,
"CAN","ack_field",0.209548,0.000004,,,,true,
"CAN","identifier_field",0.2096,0.000056,0x0000000000000301,,,,
"CAN","control_field",0.20966,0.000016,,0x0000000000000003,,,
"CAN","data_field",0.20968,0.000032,,,,,0xE8
"CAN","data_field",0.209716,0.000032,,,,,0x0F
"CAN","data_field",0.209752,0.000032,,,,,0x00
"CAN","crc_field",0.209788,0.000056,,,0x00000000000077B9,,
"CAN","ack_field",0.209852,0.000004,,,,true,
"CAN","identifier_field",0.259131,0.00006,0x0000000000000300,,,,
"CAN","control_field",0.259195,0.000012,,0x0000000000000008,,,
"CAN","data_field",0.259211,0.000032,,,,,0x03
"CAN","data_field",0.259247,0.000028,,,,,0x5A
"CAN","data_field",0.259279,0.000028,,,,,0x64
"CAN","data_field",0.259311,0.000028,,,,,0x5A
"CAN","data_field",0.259343,0.000028,,,,,0x3C
"CAN","data_field",0.259375,0.000032,,,,,0x00
"CAN","data_field",0.259415,0.000028,,,,,0x3C
"CAN","data_field",0.259447,0.000028,,,,,0x30
"CAN","crc_field",0.259479,0.00006,,,0x0000000000000E85,,
"CAN","ack_field",0.259547,0.000004,,,,true,
"CAN","identifier_field",0.259599,0.000056,0x0000000000000301,,,,
"CAN","control_field",0.259659,0.000016,,0x0000000000000003,,,
"CAN","data_field",0.259679,0.000032,,,,,0xE2
"CAN","data_field",0.259715,0.000032,,,,,0x00
"CAN","data_field",0.259751,0.000036,,,,,0x00
"CAN","crc_field",0.259791,0.000056,,,0x0000000000002F6A,,
"CAN","ack_field",0.259855,0.000004,,,,true,
"CAN","identifier_field",0.309137,0.00006,0x0000000000000300,,,,
"CAN","control_field",0.309201,0.000012,,0x0000000000000008,,,
"CAN","data_field",0.309217,0.000032,,,,,0x03
"CAN","data_field",0.309253,0.000028,,,,,0x5A
"CAN","data_field",0.309285,0.000028,,,,,0x64
"CAN","data_field",0.309317,0.000028,,,,,0x5A
"CAN","data_field",0.309349,0.000028,,,,,0x3C
"CAN","data_field",0.309381,0.000032,,,,,0x00
"CAN","data_field",0.309421,0.000028,,,,,0x3C
"CAN","data_field",0.309453,0.000028,,,,,0x31
"CAN","crc_field",0.309485,0.000056,,,0x0000000000004B1C,,
"CAN","ack_field",0.309549,0.000004,,,,true,
"CAN","identifier_field",0.309601,0.000056,0x0000000000000301,,,,
"CAN","control_field",0.309661,0.000016,,0x0000000000000003,,,
"CAN","data_field",0.309681,0.000028,,,,,0xB3
"CAN","data_field",0.309713,0.000032,,,,,0x01
"CAN","data_field",0.309749,0.000032,,,,,0x00
"CAN","crc_field",0.309785,0.00006,,,0x0000000000007FC5,,
"CAN","ack_field",0.309853,0.000004,,,,true,
"CAN","identifier_field",0.359141,0.00006,0x0000000000000300,,,,
"CAN","control_field",0.359205,0.000012,,0x0000000000000008,,,
"CAN","data_field",0.359221,0.000032,,,,,0x03
"CAN","data_field",0.359257,0.000028,,,,,0x5A
"CAN","data_field",0.359289,0.000028,,,,,0x64
"CAN","data_field",0.359321,0.000028,,,,,0x5A
"CAN","data_field",0.359353,0.000028,,,,,0x3C
"CAN","data_field",0.359385,0.000032,,,,,0x00
"CAN","data_field",0.359425,0.000028,,,,,0x3C
"CAN","data_field",0.359457,0.000028,,,,,0x32
"CAN","crc_field",0.359489,0.00006,,,0x000000000000402E,,
"CAN","ack_field",0.359557,0.000004,,,,true,
"CAN","identifier_field",0.359609,0.000056,0x0000000000000301,,,,
"CAN","control_field",0.359669,0.000016,,0x0000000000000003,,,
"CAN","data_field",0.359689,0.000028,,,,,0x6B
"CAN","data_field",0.359721,0.000032,,,,,0x02
"CAN","data_field",0.359757,0.000032,,,,,0x00
"CAN","crc_field",0.359793,0.000056,,,0x0000000000004E8A,,
"CAN","ack_field",0.359857,0.000004,,,,true,
"CAN","identifier_field",0.409149,0.00006,0x0000000000000300,,,,
"CAN","control_field",0.409213,0.000012,,0x0000000000000008,,,
"CAN","data_field",0.409229,0.000032,,,,,0x03
"CAN","data_field",0.409265,0.000028,,,,,0x5A
"CAN","data_field",0.409297,0.000028,,,,,0x64
"CAN","data_field",0.409329,0.000028,,,,,0x5A
"CAN","data_field",0.409361,0.000028,,,,,0x3C
"CAN","data_field",0.409393,0.000032,,,,,0x00
"CAN","data_field",0.409433,0.000028,,,,,0x3C
"CAN","data_field",0.409465,0.000028,,,,,0x33
"CAN","crc_field",0.409497,0.000056,,,0x00000000000005B7,,
"CAN","ack_field",0.409561,0.000004,,,,true,
"CAN","identifier_field",0.409613,0.000056,0x0000000000000301,,,,
"CAN","control_field",0.409673,0.000016,,0x0000000000000003,,,
"CAN","data_field",0.409693,0.000028,,,,,0x96
"CAN","data_field",0.409725,0.000032,,,,,0x03
"CAN","data_field",0.409761,0.000032,,,,,0x00
"CAN","crc_field",0.409797,0.00006,,,0x0000000000000AB9,,
"CAN","ack_field",0.409865,0.000004,,,,true,
"CAN","identifier_field",0.459152,0.00006,0x0000000000000300,,,,
"CAN","control_field",0.459216,0.000012,,0x0000000000000008,,,
"CAN","data_field",0.459232,0.000032,,,,,0x03
"CAN","data_field",0.459268,0.000028,,,,,0x5A
"CAN","data_field",0.4593,0.000028,,,,,0x64
"CAN","data_field",0.459332,0.000028,,,,,0x5A
"CAN","data_field",0.459364,0.000028,,,,,0x3C
"CAN","data_field",0.459396,0.000032,,,,,0x00
"CAN","data_field",0.459436,0.000028,,,,,0x3C
"CAN","data_field",0.459468,0.000028,,,,,0x74
"CAN","crc_field",0.4595,0.000056,,,0x000000000000258F,,
"CAN","ack_field",0.459564,0.000004,,,,true,
"CAN","identifier_field",0.459616,0.000056,0x0000000000000301,,,,
"CAN","control_field",0.459676,0.000016,,0x0000000000000003,,,
"CAN","data_field",0.459696,0.000032,,,,,0x03
"CAN","data_field",0.459732,0.000032,,,,,0x04
"CAN","data_field",0.459768,0.000032,,,,,0x00
"CAN","crc_field",0.459808,0.000056,,,0x0000000000000A50,,
"CAN","ack_field",0.459872,0.000004,,,,true,
"CAN","identifier_field",0.509159,0.00006,0x0000000000000300,,,,
"CAN","control_field",0.509223,0.000012,,0x0000000000000008,,,
"CAN","data_field",0.509239,0.000032,,,,,0x03
"CAN","data_field",0.509275,0.000028,,,,,0x5A
"CAN","data_field",0.509307,0.000028,,,,,0x64
"CAN","data_field",0.509339,0.000028,,,,,0x5A
"CAN","data_field",0.509371,0.000028,,,,,0x3C
"CAN","data_field",0.509403,0.000032,,,,,0x00
"CAN","data_field",0.509443,0.000028,,,,,0x3C
"CAN","data_field",0.509475,0.000028,,,,,0x75
"CAN","crc_field",0.509507,0.00006,,,0x0000000000006016,,
"CAN","ack_field",0.509575,0.000004,,,,true,
"CAN","identifier_field",0.509628,0.000056,0x0000000000000301,,,,
"CAN","control_field",0.509688,0.000016,,0x0000000000000003,,,
"CAN","data_field",0.509708,0.000028,,,,,0x54
"CAN","data_field",0.50974,0.000032,,,,,0x05
"CAN","data_field",0.509776,0.000032,,,,,0x00
"CAN","crc_field",0.509812,0.000056,,,0x000000000000342C,,
"CAN","ack_field",0.509876,0.000004,,,,true,
"CAN","identifier_field",0.559162,0.00006,0x0000000000000300,,,,
"CAN","control_field",0.559226,0.000012,,0x0000000000000008,,,
"CAN","data_field",0.559242,0.000032,,,,,0x03
"CAN","data_field",0.559278,0.000028,,,,,0x5A
"CAN","data_field",0.55931,0.000028,,,,,0x64
"CAN","data_field",0.559342,0.000028,,,,,0x5A
"CAN","data_field",0.559374,0.000028,,,,,0x3C
"CAN","data_field",0.559406,0.000032,,,,,0x00
"CAN","data_field",0.559446,0.000028,,,,,0x3C
"CAN","data_field",0.559478,0.000028,,,,,0x76
"CAN","crc_field",0.55951,0.000056,,,0x0000000000006B24,,
"CAN","ack_field",0.559574,0.000004,,,,true,
"CAN","identifier_field",0.559626,0.000056,0x0000000000000301,,,,
"CAN","control_field",0.559686,0.000016,,0x0000000000000003,,,
"CAN","data_field",0.559706,0.000032,,,,,0xF5
"CAN","data_field",0.559742,0.000032,,,,,0x06
"CAN","data_field",0.559778,0.000032,,,,,0x00
"CAN","crc_field",0.559814,0.00006,,,0x0000000000004168,,
"CAN","ack_field",0.559882,0.000004,,,,true,
"CAN","identifier_field",0.60917,0.00006,0x0000000000000300,,,,
"CAN","control_field",0.609234,0.000012,,0x0000000000000008,,,
"CAN","data_field",0.60925,0.000032,,,,,0x03
"CAN","data_field",0.609286,0.000028,,,,,0x5A
"CAN","data_field",0.609318,0.000028,,,,,0x64
"CAN","data_field",0.60935,0.000028,,,,,0x5A
"CAN","data_field",0.609382,0.000028,,,,,0x3C
"CAN","data_field",0.609414,0.000032,,,,,0x00
"CAN","data_field",0.609454,0.000028,,,,,0x3C
"CAN","data_field",0.609486,0.000028,,,,,0x77
"CAN","crc_field",0.609518,0.000056,,,0x0000000000002EBD,,
"CAN","ack_field",0.609582,0.000004,,,,true,
"CAN","identifier_field",0.609634,0.000056,0x0000000000000301,,,,
"CAN","control_field",0.609694,0.000016,,0x0000000000000003,,,
"CAN","data_field",0.609714,0.000028,,,,,0xB8
"CAN","data_field",0.609746,0.000032,,,,,0x07
"CAN","data_field",0.609782,0.000032,,,,,0x00
"CAN","crc_field",0.609818,0.000056,,,0x0000000000006ADB,,
"CAN","ack_field",0.609882,0.000004,,,,true,
"CAN","identifier_field",0.659173,0.00006,0x0000000000000300,,,,
"CAN","control_field",0.659237,0.000012,,0x0000000000000008,,,
"CAN","data_field",0.659253,0.000032,,,,,0x03
"CAN","data_field",0.659289,0.000028,,,,,0x5A
"CAN","data_field",0.659321,0.000028,,,,,0x64
"CAN","data_field",0.659353,0.000028,,,,,0x5A
"CAN","data_field",0.659385,0.000028,,,,,0x3C
"CAN","data_field",0.659417,0.000032,,,,,0x00
"CAN","data_field",0.659457,0.000028,,,,,0x3C
"CAN","data_field",0.659489,0.000028,,,,,0xB8
"CAN","crc_field",0.659521,0.000056,,,0x0000000000005891,,
"CAN","ack_field",0.659585,0.000004,,,,true,
"CAN","identifier_field",0.659637,0.000056,0x0000000000000301,,,,
"CAN","control_field",0.659697,0.000016,,0x0000000000000003,,,
"CAN","data_field",0.659717,0.000032,,,,,0x80
"CAN","data_field",0.659753,0.000032,,,,,0x08
"CAN","data_field",0.659789,0.000036,,,,,0x00
"CAN","crc_field",0.659829,0.000056,,,0x0000000000007745,,
"CAN","ack_field",0.659893,0.000004,,,,true,
"CAN","identifier_field",0.70918,0.00006,0x0000000000000300,,,,
"CAN","control_field",0.709244,0.000012,,0x0000000000000008,,,
"CAN","data_field",0.70926,0.000032,,,,,0x03
"CAN","data_field",0.709296,0.000028,,,,,0x5A
"CAN","data_field",0.709328,0.000028,,,,,0x64
"CAN","data_field",0.70936,0.000028,,,,,0x5A
"CAN","data_field",0.709392,0.000028,,,,,0x3C
"CAN","data_field",0.709424,0.000032,,,,,0x00
"CAN","data_field",0.709464,0.000028,,,,,0x3C
"CAN","data_field",0.709496,0.000028,,,,,0xB9
"CAN","crc_field",0.709528,0.000056,,,0x0000000000001D08,,
"CAN","ack_field",0.709592,0.000004,,,,true,
"CAN","identifier_field",0.709644,0.000056,0x0000000000000301,,,,
"CAN","control_field",0.709704,0.000016,,0x0000000000000003,,,
"CAN","data_field",0.709724,0.000028,,,,,0x88
"CAN","data_field",0.709756,0.000032,,,,,0x09
"CAN","data_field",0.709792,0.000032,,,,,0x00
"CAN","crc_field",0.709828,0.000064,,,0x000000000000603E,,
"CAN","ack_field",0.7099,0.000004,,,,true,
"CAN","identifier_field",0.759182,0.00006,0x0000000000000300,,,,
"CAN","control_field",0.759246,0.000012,,0x0000000000000008,,,
"CAN","data_field",0.759262,0.000032,,,,,0x03
"CAN","data_field",0.759298,0.000028,,,,,0x5A
"CAN","data_field",0.75933,0.000028,,,,,0x64
"CAN","data_field",0.759362,0.000028,,,,,0x5A
"CAN","data_field",0.759394,0.000028,,,,,0x3C
"CAN","data_field",0.759426,0.000032,,,,,0x00
"CAN","data_field",0.759466,0.000028,,,,,0x3C
"CAN","data_field",0.759498,0.000028,,,,,0xBA
"CAN","crc_field",0.75953,0.000056,,,0x000000000000163A,,
"CAN","ack_field",0.759594,0.000004,,,,true,
"CAN","identifier_field",0.759646,0.000056,0x0000000000000301,,,,
"CAN","control_field",0.759706,0.000016,,0x0000000000000003,,,
"CAN","data_field",0.759726,0.000032,,,,,0xC6
"CAN","data_field",0.759762,0.000032,,,,,0x0A
"CAN","data_field",0.759798,0.000032,,,,,0x00
"CAN","crc_field",0.759834,0.00006,,,0x00000000000053FD,,
"CAN","ack_field",0.759902,0.000004,,,,true,
"CAN","identifier_field",0.80919,0.00006,0x0000000000000300,,,,
"CAN","control_field",0.809254,0.000012,,0x0000000000000008,,,
"CAN","data_field",0.80927,0.000032,,,,,0x03
"CAN","data_field",0.809306,0.000028,,,,,0x5A
"CAN","data_field",0.809338,0.000028,,,,,0x64
"CAN","data_field",0.80937,0.000028,,,,,0x5A
"CAN","data_field",0.809402,0.000028,,,,,0x3C
"CAN","data_field",0.809434,0.000032,,,,,0x00
"CAN","data_field",0.809474,0.000028,,,,,0x3C
"CAN","data_field",0.809506,0.000028,,,,,0xBB
"CAN","crc_field",0.809538,0.000056,,,0x00000000000053A3,,
"CAN","ack_field",0.809602,0.000004,,,,true,
"CAN","identifier_field",0.809654,0.000056,0x0000000000000301,,,,
"CAN","control_field",0.809714,0.000016,,0x0000000000000003,,,
"CAN","data_field",0.809734,0.000028,,,,,0x43
"CAN","data_field",0.809766,0.000028,,,,,0x0B
"CAN","data_field",0.809798,0.000032,,,,,0x00
"CAN","crc_field",0.809834,0.000056,,,0x00000000000023D1,,
"CAN","ack_field",0.809898,0.000004,,,,true,
"CAN","identifier_field",0.859197,0.00006,0x0000000000000300,,,,
"CAN","control_field",0.859261,0.000012,,0x0000000000000008,,,
"CAN","data_field",0.859277,0.000032,,,,,0x03
"CAN","data_field",0.859313,0.000028,,,,,0x5A
"CAN","data_field",0.859345,0.000028,,,,,0x64
"CAN","data_field",0.859377,0.000028,,,,,0x5A
"CAN","data_field",0.859409,0.000028,,,,,0x3C
"CAN","data_field",0.859441,0.000032,,,,,0x00
"CAN","data_field",0.859481,0.000028,,,,,0x3C
"CAN","data_field",0.859513,0.000032,,,,,0xFC
"CAN","crc_field",0.859549,0.000056,,,0x000000000000739B,,
"CAN","ack_field",0.859613,0.000004,,,,true,
"CAN","identifier_field",0.859665,0.000056,0x0000000000000301,,,,
"CAN","control_field",0.859725,0.000016,,0x0000000000000003,,,
"CAN","data_field",0.859745,0.000028,,,,,0xB5
"CAN","data_field",0.859777,0.000028,,,,,0x0C
"CAN","data_field",0.859809,0.000032,,,,,0x00
"CAN","crc_field",0.859849,0.00006,,,0x00000000000072FC,,
"CAN","ack_field",0.859917,0.000004,,,,true,
"CAN","identifier_field",0.9092,0.00006,0x0000000000000300,,,,
"CAN","control_field",0.909264,0.000012,,0x0000000000000008,,,
"CAN","data_field",0.90928,0.000032,,,,,0x03
"CAN","data_field",0.909316,0.000028,,,,,0x5A
"CAN","data_field",0.909348,0.000028,,,,,0x64
"CAN","data_field",0.90938,0.000028,,,,,0x5A
"CAN","data_field",0.909412,0.000028,,,,,0x3C
"CAN","data_field",0.909444,0.000032,,,,,0x00
"CAN","data_field",0.909484,0.000028,,,,,0x3C
"CAN","data_field",0.909516,0.000032,,,,,0xFD
"CAN","crc_field",0.909552,0.00006,,,0x0000000000003602,,
"CAN","ack_field",0.90962,0.000004,,,,true,
"CAN","identifier_field",0.909672,0.000056,0x0000000000000301,,,,
"CAN","control_field",0.909732,0.000016,,0x0000000000000003,,,
"CAN","data_field",0.909752,0.000028,,,,,0x4E
"CAN","data_field",0.909784,0.000032,,,,,0x0D
"CAN","data_field",0.90982,0.000032,,,,,0x00
"CAN","crc_field",0.909856,0.00006,,,0x000000000000581C,,
"CAN","ack_field",0.909924,0.000004,,,,true,
"CAN","identifier_field",0.959206,0.00006,0x0000000000000300,,,,
"CAN","control_field",0.95927,0.000012,,0x0000000000000008,,,
"CAN","data_field",0.959286,0.000032,,,,,0x03
"CAN","data_field",0.959322,0.000028,,,,,0x5A
"CAN","data_field",0.959354,0.000028,,,,,0x64
"CAN","data_field",0.959386,0.000028,,,,,0x5A
"CAN","data_field",0.959418,0.000028,,,,,0x3C
"CAN","data_field",0.95945,0.000032,,,,,0x00
"CAN","data_field",0.95949,0.000028,,,,,0x3C
"CAN","data_field",0.959522,0.000032,,,,,0xFE
"CAN","crc_field",0.959558,0.000056,,,0x0000000000003D30,,
"CAN","ack_field",0.959622,0.000004,,,,true,
"CAN","identifier_field",0.959674,0.000056,0x0000000000000301,,,,
"CAN","control_field",0.959734,0.000016,,0x0000000000000003,,,
"CAN","data_field",0.959754,0.000028,,,,,0x1D
"CAN","data_field",0.959786,0.000028,,,,,0x0E
"CAN","data_field",0.959818,0.000032,,,,,0x00
"CAN","crc_field",0.959854,0.00006,,,0x00000000000060D7,,
"CAN","ack_field",0.959922,0.000004,,,,true,
"CAN","identifier_field",1.009209,0.00006,0x0000000000000300,,,,
"CAN","control_field",1.009273,0.000012,,0x0000000000000008,,,
"CAN","data_field",1.009289,0.000032,,,,,0x03
"CAN","data_field",1.009325,0.000028,,,,,0x5A
"CAN","data_field",1.009357,0.000028,,,,,0x64
"CAN","data_field",1.009389,0.000028,,,,,0x5A
"CAN","data_field",1.009421,0.000028,,,,,0x3C
"CAN","data_field",1.009453,0.000032,,,,,0x00
"CAN","data_field",1.009493,0.000028,,,,,0x3C
"CAN","data_field",1.009525,0.000032,,,,,0xFF
"CAN","crc_field",1.009561,0.00006,,,0x00000000000078A9,,
