name,type,start_time,duration,"identifier","num_data_bytes","crc","ack","data"
"CAN","identifier_field",0.004492,0.000056,0x0000000000000404,,,,
"CAN","control_field",0.004556,0.000012,,0x0000000000000002,,,
"CAN","data_field",0.004572,0.000028,,,,,0x20
"CAN","data_field",0.004608,0.000032,,,,,0x00
"CAN","crc_field",0.004644,0.00006,,,0x0000000000007EC6,,
"CAN","ack_field",0.004712,0.000004,,,,true,
"CAN","identifier_field",0.035476,0.00006,0x0000000000000300,,,,
"CAN","control_field",0.03554,0.000012,,0x0000000000000008,,,
"CAN","data_field",0.035556,0.000032,,,,,0x03
"CAN","data_field",0.035592,0.000028,,,,,0x5A
"CAN","data_field",0.035624,0.000028,,,,,0x64
"CAN","data_field",0.035656,0.000028,,,,,0x5A
"CAN","data_field",0.035688,0.000028,,,,,0x5A
"CAN","data_field",0.03572,0.000032,,,,,0x00
"CAN","data_field",0.035756,0.000032,,,,,0x5A
"CAN","data_field",0.035792,0.000032,,,,,0xFC
"CAN","crc_field",0.035828,0.000056,,,0x00000000000043A1,,
"CAN","ack_field",0.035892,0.000004,,,,true,
"CAN","identifier_field",0.035944,0.000056,0x0000000000000301,,,,
"CAN","control_field",0.036004,0.000016,,0x0000000000000003,,,
"CAN","data_field",0.036024,0.000028,,,,,0xB5
"CAN","data_field",0.036056,0.000028,,,,,0x0C
"CAN","data_field",0.036088,0.000032,,,,,0x00
"CAN","crc_field",0.036128,0.00006,,,0x00000000000072FC,,
"CAN","ack_field",0.036196,0.000004,,,,true,
"CAN","identifier_field",0.041125,0.000056,0x0000000000000404,,,,
"CAN","control_field",0.041189,0.000012,,0x0000000000000002,,,
"CAN","data_field",0.041205,0.000028,,,,,0x21
"CAN","data_field",0.041237,0.000032,,,,,0x00
"CAN","crc_field",0.041273,0.000056,,,0x0000000000003AE0,,
"CAN","ack_field",0.041341,0.000004,,,,true,
"CAN","identifier_field",0.067004,0.000056,0x0000000000000404,,,,
"CAN","control_field",0.067068,0.000012,,0x0000000000000002,,,
"CAN","data_field",0.067084,0.000028,,,,,0x22
"CAN","data_field",0.067116,0.000032,,,,,0x00
"CAN","crc_field",0.067152,0.00006,,,0x0000000000003313,,
"CAN","ack_field",0.06722,0.000004,,,,true,
"CAN","identifier_field",0.085479,0.00006,0x0000000000000300,,,,
"CAN","control_field",0.085543,0.000012,,0x0000000000000008,,,
"CAN","data_field",0.085559,0.000032,,,,,0x03
"CAN","data_field",0.085595,0.000028,,,,,0x5A
"CAN","data_field",0.085627,0.000028,,,,,0x64
"CAN","data_field",0.085659,0.000028,,,,,0x5A
"CAN","data_field",0.085691,0.000028,,,,,0x5A
"CAN","data_field",0.085723,0.000032,,,,,0x00
"CAN","data_field",0.085759,0.000032,,,,,0x5A
"CAN","data_field",0.085795,0.000032,,,,,0xFD
"CAN","crc_field",0.085831,0.000056,,,0x0000000000000638,,
"CAN","ack_field",0.085895,0.000004,,,,true,
"CAN","identifier_field",0.085947,0.000056,0x0000000000000301,,,,
"CAN","control_field",0.086007,0.000016,,0x0000000000000003,,,
"CAN","data_field",0.086027,0.000028,,,,,0x4E
"CAN","data_field",0.086059,0.000032,,,,,0x0D
"CAN","data_field",0.086095,0.000032,,,,,0x00
"CAN","crc_field",0.086131,0.00006,,,0x000000000000581C,,
"CAN","ack_field",0.086199,0.000004,,,,true,
"CAN","identifier_field",0.09837,0.000056,0x0000000000000404,,,,
"CAN","control_field",0.098434,0.000012,,0x0000000000000002,,,
"CAN","data_field",0.09845,0.000028,,,,,0x23
"CAN","data_field",0.098482,0.000032,,,,,0x00
"CAN","crc_field",0.098518,0.000056,,,0x0000000000007735,,
"CAN","ack_field",0.098582,0.000004,,,,true,
"CAN","identifier_field",0.129528,0.000056,0x0000000000000404,,,,
"CAN","control_field",0.129592,0.000012,,0x0000000000000002,,,
"CAN","data_field",0.129608,0.000028,,,,,0x24
"CAN","data_field",0.12964,0.000032,,,,,0x00
"CAN","crc_field",0.12968,0.000064,,,0x00000000000020F5,,
"CAN","ack_field",0.129752,0.000004,,,,true,
"CAN","identifier_field",0.135483,0.00006,0x0000000000000300,,,,
"CAN","control_field",0.135547,0.000012,,0x0000000000000008,,,
"CAN","data_field",0.135563,0.000032,,,,,0x03
"CAN","data_field",0.135599,0.000028,,,,,0x5A
"CAN","data_field",0.135631,0.000028,,,,,0x64
"CAN","data_field",0.135663,0.000028,,,,,0x5A
"CAN","data_field",0.135695,0.000028,,,,,0x5A
"CAN","data_field",0.135727,0.000032,,,,,0x00
"CAN","data_field",0.135763,0.000032,,,,,0x5A
"CAN","data_field",0.135799,0.000028,,,,,0xDE
"CAN","crc_field",0.135831,0.000056,,,0x0000000000005624,,
"CAN","ack_field",0.135895,0.000004,,,,true,
"CAN","identifier_field",0.135947,0.000056,0x0000000000000301,,,,
"CAN","control_field",0.136007,0.000016,,0x0000000000000003,,,
"CAN","data_field",0.136027,0.000028,,,,,0x1D
"CAN","data_field",0.136059,0.000028,,,,,0x0E
"CAN","data_field",0.136091,0.000032,,,,,0x00
"CAN","crc_field",0.136127,0.00006,,,0x00000000000060D7,,
"CAN","ack_field",0.136195,0.000004,,,,true,
"CAN","identifier_field",0.160952,0.000056,0x0000000000000404,,,,
"CAN","control_field",0.161016,0.000012,,0x0000000000000002,,,
"CAN","data_field",0.161032,0.000028,,,,,0x25
"CAN","data_field",0.161064,0.000032,,,,,0x00
"CAN","crc_field",0.1611,0.000056,,,0x00000000000064D3,,
"CAN","ack_field",0.161164,0.000004,,,,true,
"CAN","identifier_field",0.185489,0.00006,0x0000000000000300,,,,
"CAN","control_field",0.185553,0.000012,,0x0000000000000008,,,
"CAN","data_field",0.185569,0.000032,,,,,0x03
"CAN","data_field",0.185605,0.000028,,,,,0x5A
"CAN","data_field",0.185637,0.000028,,,,,0x64
"CAN","data_field",0.185669,0.000028,,,,,0x5A
"CAN","data_field",0.185701,0.000028,,,,,0x5A
"CAN","data_field",0.185733,0.000032,,,,,0x00
"CAN","data_field",0.185769,0.000032,,,,,0x5A
"CAN","data_field",0.185805,0.000028,,,,,0xDF
"CAN","crc_field",0.185841,0.000056,,,0x00000000000013BD,,
"CAN","ack_field",0.185905,0.000004,,,,true,
"CAN","identifier_field",0.185957,0.000056,0x0000000000000301,,,,
"CAN","control_field",0.186017,0.000016,,0x0000000000000003,,,
"CAN","data_field",0.186037,0.000032,,,,,0xE8
"CAN","data_field",0.186073,0.000032,,,,,0x0F
"CAN","data_field",0.186109,0.000032,,,,,0x00
"CAN","crc_field",0.186145,0.000056,,,0x00000000000077B9,,
"CAN","ack_field",0.186209,0.000004,,,,true,
"CAN","identifier_field",0.197338,0.000056,0x0000000000000404,,,,
"CAN","control_field",0.197402,0.000012,,0x0000000000000002,,,
"CAN","data_field",0.197418,0.000028,,,,,0x26
"CAN","data_field",0.19745,0.000032,,,,,0x00
"CAN","crc_field",0.197486,0.000056,,,0x0000000000006D20,,
"CAN","ack_field",0.197554,0.000004,,,,true,
"CAN","identifier_field",0.223361,0.000056,0x0000000000000404,,,,
"CAN","control_field",0.223425,0.000012,,0x0000000000000002,,,
"CAN","data_field",0.223441,0.000028,,,,,0x27
"CAN","data_field",0.223473,0.000032,,,,,0x00
"CAN","crc_field",0.223509,0.00006,,,0x0000000000002906,,
"CAN","ack_field",0.223577,0.000004,,,,true,
"CAN","identifier_field",0.235494,0.00006,0x0000000000000300,,,,
"CAN","control_field",0.235558,0.000012,,0x0000000000000008,,,
"CAN","data_field",0.235574,0.000032,,,,,0x03
"CAN","data_field",0.23561,0.000028,,,,,0x5A
"CAN","data_field",0.235642,0.000028,,,,,0x64
"CAN","data_field",0.235674,0.000028,,,,,0x5A
"CAN","data_field",0.235706,0.000028,,,,,0x5A
"CAN","data_field",0.235738,0.000032,,,,,0x00
"CAN","data_field",0.235774,0.000032,,,,,0x5A
"CAN","data_field",0.23581,0.000028,,,,,0x70
"CAN","crc_field",0.235842,0.000056,,,0x0000000000004D7A,,
"CAN","ack_field",0.235906,0.000004,,,,true,
"CAN","identifier_field",0.235958,0.000056,0x0000000000000301,,,,
"CAN","control_field",0.236018,0.000016,,0x0000000000000003,,,
"CAN","data_field",0.236038,0.000032,,,,,0xE2
"CAN","data_field",0.236074,0.000032,,,,,0x00
"CAN","data_field",0.23611,0.000036,,,,,0x00
"CAN","crc_field",0.23615,0.000056,,,0x0000000000002F6A,,
"CAN","ack_field",0.236214,0.000004,,,,true,
"CAN","identifier_field",0.254508,0.000056,0x0000000000000404,,,,
"CAN","control_field",0.254572,0.000012,,0x0000000000000002,,,
"CAN","data_field",0.254588,0.000028,,,,,0x4C
"CAN","data_field",0.25462,0.000032,,,,,0x00
"CAN","crc_field",0.25466,0.00006,,,0x00000000000029C1,,
"CAN","ack_field",0.254728,0.000004,,,,true,
"CAN","identifier_field",0.2855,0.00006,0x0000000000000300,,,,
"CAN","control_field",0.285564,0.000012,,0x0000000000000008,,,
"CAN","data_field",0.28558,0.000032,,,,,0x03
"CAN","data_field",0.285616,0.000028,,,,,0x5A
"CAN","data_field",0.285648,0.000028,,,,,0x64
"CAN","data_field",0.28568,0.000028,,,,,0x5A
"CAN","data_field",0.285712,0.000028,,,,,0x5A
"CAN","data_field",0.285744,0.000032,,,,,0x00
"CAN","data_field",0.28578,0.000032,,,,,0x5A
"CAN","data_field",0.285816,0.000028,,,,,0x71
"CAN","crc_field",0.285848,0.000056,,,0x00000000000008E3,,
"CAN","ack_field",0.285912,0.000004,,,,true,
"CAN","identifier_field",0.285964,0.000056,0x0000000000000301,,,,
"CAN","control_field",0.286024,0.000016,,0x0000000000000003,,,
"CAN","data_field",0.286044,0.000028,,,,,0xB3
"CAN","data_field",0.286076,0.000032,,,,,0x01
"CAN","data_field",0.286112,0.000032,,,,,0x00
"CAN","crc_field",0.286148,0.00006,,,0x0000000000007FC5,,
"CAN","ack_field",0.286216,0.000004,,,,true,
"CAN","identifier_field",0.286268,0.000056,0x0000000000000404,,,,
"CAN","control_field",0.286332,0.000012,,0x0000000000000002,,,
"CAN","data_field",0.286348,0.000028,,,,,0x46
"CAN","data_field",0.28638,0.000032,,,,,0x00
"CAN","crc_field",0.286416,0.00006,,,0x0000000000001DEB,,
"CAN","ack_field",0.286484,0.000004,,,,true,
"CAN","identifier_field",0.317028,0.000056,0x0000000000000404,,,,
"CAN","control_field",0.317092,0.000012,,0x0000000000000002,,,
"CAN","data_field",0.317108,0.000028,,,,,0x4D
"CAN","data_field",0.31714,0.000032,,,,,0x00
"CAN","crc_field",0.317176,0.000056,,,0x0000000000006DE7,,
"CAN","ack_field",0.31724,0.000004,,,,true,
"CAN","identifier_field",0.335507,0.00006,0x0000000000000300,,,,
"CAN","control_field",0.335571,0.000012,,0x0000000000000008,,,
"CAN","data_field",0.335587,0.000032,,,,,0x03
"CAN","data_field",0.335623,0.000028,,,,,0x5A
"CAN","data_field",0.335655,0.000028,,,,,0x64
"CAN","data_field",0.335687,0.000028,,,,,0x5A
"CAN","data_field",0.335719,0.000028,,,,,0x5A
"CAN","data_field",0.335751,0.000032,,,,,0x00
"CAN","data_field",0.335787,0.000032,,,,,0x5A
"CAN","data_field",0.335823,0.000028,,,,,0x52
"CAN","crc_field",0.335855,0.00006,,,0x00000000000058FF,,
"CAN","ack_field",0.335923,0.000004,,,,true,
"CAN","identifier_field",0.335975,0.000056,0x0000000000000301,,,,
"CAN","control_field",0.336035,0.000016,,0x0000000000000003,,,
"CAN","data_field",0.336055,0.000028,,,,,0x6B
"CAN","data_field",0.336087,0.000032,,,,,0x02
"CAN","data_field",0.336123,0.000032,,,,,0x00
"CAN","crc_field",0.336159,0.000056,,,0x0000000000004E8A,,
"CAN","ack_field",0.336223,0.000004,,,,true,
"CAN","identifier_field",0.354337,0.000056,0x0000000000000404,,,,
"CAN","control_field",0.354401,0.000012,,0x0000000000000002,,,
"CAN","data_field",0.354417,0.000028,,,,,0x50
"CAN","data_field",0.354449,0.000036,,,,,0x00
"CAN","crc_field",0.354489,0.000056,,,0x000000000000386A,,
"CAN","ack_field",0.354553,0.000004,,,,true,
"CAN","identifier_field",0.379521,0.000056,0x0000000000000404,,,,
"CAN","control_field",0.379585,0.000012,,0x0000000000000002,,,
"CAN","data_field",0.379601,0.000032,,,,,0x02
"CAN","data_field",0.379637,0.000032,,,,,0x00
"CAN","crc_field",0.379673,0.00006,,,0x0000000000005FDD,,
"CAN","ack_field",0.379741,0.000004,,,,true,
"CAN","identifier_field",0.385511,0.00006,0x0000000000000300,,,,
"CAN","control_field",0.385575,0.000012,,0x0000000000000008,,,
"CAN","data_field",0.385591,0.000032,,,,,0x03
"CAN","data_field",0.385627,0.000028,,,,,0x5A
"CAN","data_field",0.385659,0.000028,,,,,0x64
"CAN","data_field",0.385691,0.000028,,,,,0x5A
"CAN","data_field",0.385723,0.000028,,,,,0x5A
"CAN","data_field",0.385755,0.000032,,,,,0x00
"CAN","data_field",0.385791,0.000032,,,,,0x5A
"CAN","data_field",0.385827,0.000028,,,,,0x53
"CAN","crc_field",0.385859,0.000056,,,0x0000000000001D66,,
"CAN","ack_field",0.385923,0.000004,,,,true,
"CAN","identifier_field",0.385975,0.000056,0x0000000000000301,,,,
"CAN","control_field",0.386035,0.000016,,0x0000000000000003,,,
"CAN","data_field",0.386055,0.000028,,,,,0x96
"CAN","data_field",0.386087,0.000032,,,,,0x03
"CAN","data_field",0.386123,0.000032,,,,,0x00
"CAN","crc_field",0.386159,0.00006,,,0x0000000000000AB9,,
"CAN","ack_field",0.386227,0.000004,,,,true,
"CAN","identifier_field",0.41077,0.000056,0x0000000000000404,,,,
"CAN","control_field",0.410834,0.000012,,0x0000000000000002,,,
"CAN","data_field",0.41085,0.000032,,,,,0x0A
"CAN","data_field",0.410886,0.000032,,,,,0x00
"CAN","crc_field",0.410922,0.00006,,,0x0000000000002622,,
"CAN","ack_field",0.41099,0.000004,,,,true,
"CAN","identifier_field",0.435516,0.00006,0x0000000000000300,,,,
"CAN","control_field",0.43558,0.000012,,0x0000000000000008,,,
"CAN","data_field",0.435596,0.000032,,,,,0x03
"CAN","data_field",0.435632,0.000028,,,,,0x5A
"CAN","data_field",0.435664,0.000028,,,,,0x64
"CAN","data_field",0.435696,0.000028,,,,,0x5A
"CAN","data_field",0.435728,0.000028,,,,,0x5A
"CAN","data_field",0.43576,0.000032,,,,,0x00
"CAN","data_field",0.435796,0.000032,,,,,0x5A
"CAN","data_field",0.435832,0.000028,,,,,0x74
"CAN","crc_field",0.435864,0.000056,,,0x00000000000015B5,,
"CAN","ack_field",0.435928,0.000004,,,,true,
"CAN","identifier_field",0.43598,0.000056,0x0000000000000301,,,,
"CAN","control_field",0.43604,0.000016,,0x0000000000000003,,,
"CAN","data_field",0.43606,0.000032,,,,,0x03
"CAN","data_field",0.436096,0.000032,,,,,0x04
"CAN","data_field",0.436132,0.000032,,,,,0x00
"CAN","crc_field",0.436172,0.000056,,,0x0000000000000A50,,
"CAN","ack_field",0.436236,0.000004,,,,true,
"CAN","identifier_field",0.442105,0.000056,0x0000000000000404,,,,
"CAN","control_field",0.442169,0.000012,,0x0000000000000002,,,
"CAN","data_field",0.442185,0.000032,,,,,0x04
"CAN","data_field",0.442221,0.000032,,,,,0x00
"CAN","crc_field",0.442261,0.000056,,,0x0000000000004C3B,,
"CAN","ack_field",0.442325,0.000004,,,,true,
"CAN","identifier_field",0.47327,0.000056,0x0000000000000404,,,,
"CAN","control_field",0.473334,0.000012,,0x0000000000000002,,,
"CAN","data_field",0.47335,0.000028,,,,,0xB0
"CAN","data_field",0.473382,0.000036,,,,,0x01
"CAN","crc_field",0.473422,0.000056,,,0x0000000000003532,,
"CAN","ack_field",0.473486,0.000004,,,,true,
"CAN","identifier_field",0.48552,0.00006,0x0000000000000300,,,,
"CAN","control_field",0.485584,0.000012,,0x0000000000000008,,,
"CAN","data_field",0.4856,0.000032,,,,,0x03
"CAN","data_field",0.485636,0.000028,,,,,0x5A
"CAN","data_field",0.485668,0.000028,,,,,0x64
"CAN","data_field",0.4857,0.000028,,,,,0x5A
"CAN","data_field",0.485732,0.000028,,,,,0x5A
"CAN","data_field",0.485764,0.000032,,,,,0x00
"CAN","data_field",0.4858,0.000032,,,,,0x5A
"CAN","data_field",0.485836,0.000028,,,,,0x75
"CAN","crc_field",0.485868,0.00006,,,0x000000000000502C,,
"CAN","ack_field",0.485936,0.000004,,,,true,
"CAN","identifier_field",0.485988,0.000056,0x0000000000000301,,,,
"CAN","control_field",0.486048,0.000016,,0x0000000000000003,,,
"CAN","data_field",0.486068,0.000028,,,,,0x54
"CAN","data_field",0.4861,0.000032,,,,,0x05
"CAN","data_field",0.486136,0.000032,,,,,0x00
"CAN","crc_field",0.486172,0.000056,,,0x000000000000342C,,
"CAN","ack_field",0.486236,0.000004,,,,true,
"CAN","identifier_field",0.510036,0.000056,0x0000000000000404,,,,
"CAN","control_field",0.5101,0.000012,,0x0000000000000002,,,
"CAN","data_field",0.510116,0.000028,,,,,0xB1
"CAN","data_field",0.510148,0.000032,,,,,0x01
"CAN","crc_field",0.510184,0.000056,,,0x0000000000007114,,
"CAN","ack_field",0.510248,0.000004,,,,true,
"CAN","identifier_field",0.535526,0.00006,0x0000000000000300,,,,
"CAN","control_field",0.53559,0.000012,,0x0000000000000008,,,
"CAN","data_field",0.535606,0.000032,,,,,0x03
"CAN","data_field",0.535642,0.000028,,,,,0x5A
"CAN","data_field",0.535674,0.000028,,,,,0x64
"CAN","data_field",0.535706,0.000028,,,,,0x5A
"CAN","data_field",0.535738,0.000028,,,,,0x5A
"CAN","data_field",0.53577,0.000032,,,,,0x00
"CAN","data_field",0.535806,0.000032,,,,,0x5A
"CAN","data_field",0.535842,0.000028,,,,,0x56
"CAN","crc_field",0.535874,0.000064,,,0x0000000000000030,,
"CAN","ack_field",0.535946,0.000004,,,,true,
"CAN","identifier_field",0.535998,0.000056,0x0000000000000301,,,,
"CAN","control_field",0.536058,0.000016,,0x0000000000000003,,,
"CAN","data_field",0.536078,0.000032,,,,,0xF5
"CAN","data_field",0.536114,0.000032,,,,,0x06
"CAN","data_field",0.53615,0.000032,,,,,0x00
"CAN","crc_field",0.536186,0.00006,,,0x0000000000004168,,
"CAN","ack_field",0.536254,0.000004,,,,true,
"CAN","identifier_field",0.585533,0.00006,0x0000000000000300,,,,
"CAN","control_field",0.585597,0.000012,,0x0000000000000008,,,
"CAN","data_field",0.585613,0.000032,,,,,0x03
"CAN","data_field",0.585649,0.000028,,,,,0x5A
"CAN","data_field",0.585681,0.000028,,,,,0x64
"CAN","data_field",0.585713,0.000028,,,,,0x5A
"CAN","data_field",0.585745,0.000028,,,,,0x5A
"CAN","data_field",0.585777,0.000032,,,,,0x00
"CAN","data_field",0.585813,0.000032,,,,,0x5A
"CAN","data_field",0.585849,0.000028,,,,,0x57
"CAN","crc_field",0.585881,0.000056,,,0x00000000000045A9,,
"CAN","ack_field",0.585945,0.000004,,,,true,
"CAN","identifier_field",0.585997,0.000056,0x0000000000000301,,,,
"CAN","control_field",0.586057,0.000016,,0x0000000000000003,,,
"CAN","data_field",0.586077,0.000028,,,,,0xB8
"CAN","data_field",0.586109,0.000032,,,,,0x07
"CAN","data_field",0.586145,0.000032,,,,,0x00
"CAN","crc_field",0.586181,0.000056,,,0x0000000000006ADB,,
"CAN","ack_field",0.586245,0.000004,,,,true,
"CAN","identifier_field",0.635538,0.00006,0x0000000000000300,,,,
"CAN","control_field",0.635602,0.000012,,0x0000000000000008,,,
"CAN","data_field",0.635618,0.000032,,,,,0x03
"CAN","data_field",0.635654,0.000028,,,,,0x5A
"CAN","data_field",0.635686,0.000028,,,,,0x64
"CAN","data_field",0.635718,0.000028,,,,,0x5A
"CAN","data_field",0.63575,0.000028,,,,,0x5A
"CAN","data_field",0.635782,0.000032,,,,,0x00
"CAN","data_field",0.635818,0.000032,,,,,0x5A
"CAN","data_field",0.635854,0.000032,,,,,0xF8
"CAN","crc_field",0.63589,0.00006,,,0x0000000000001B6E,,
"CAN","ack_field",0.635958,0.000004,,,,true,
"CAN","identifier_field",0.63601,0.000056,0x0000000000000301,,,,
"CAN","control_field",0.63607,0.000016,,0x0000000000000003,,,
"CAN","data_field",0.63609,0.000032,,,,,0x80
"CAN","data_field",0.636126,0.000032,,,,,0x08
"CAN","data_field",0.636162,0.000036,,,,,0x00
"CAN","crc_field",0.636202,0.000056,,,0x0000000000007745,,
"CAN","ack_field",0.636266,0.000004,,,,true,
"CAN","identifier_field",0.685541,0.00006,0x0000000000000300,,,,
"CAN","control_field",0.685605,0.000012,,0x0000000000000008,,,
"CAN","data_field",0.685621,0.000032,,,,,0x03
"CAN","data_field",0.685657,0.000028,,,,,0x5A
"CAN","data_field",0.685689,0.000028,,,,,0x64
"CAN","data_field",0.685721,0.000028,,,,,0x5A
"CAN","data_field",0.685753,0.000028,,,,,0x5A
"CAN","data_field",0.685785,0.000032,,,,,0x00
"CAN","data_field",0.685821,0.000032,,,,,0x5A
"CAN","data_field",0.685857,0.000032,,,,,0xF9
"CAN","crc_field",0.685893,0.000056,,,0x0000000000005EF7,,
"CAN","ack_field",0.685957,0.000004,,,,true,
"CAN","identifier_field",0.686009,0.000056,0x0000000000000301,,,,
"CAN","control_field",0.686069,0.000016,,0x0000000000000003,,,
"CAN","data_field",0.686089,0.000028,,,,,0x88
"CAN","data_field",0.686121,0.000032,,,,,0x09
"CAN","data_field",0.686157,0.000032,,,,,0x00
"CAN","crc_field",0.686193,0.000064,,,0x000000000000603E,,
"CAN","ack_field",0.686265,0.000004,,,,true,
"CAN","identifier_field",0.735549,0.00006,0x0000000000000300,,,,
"CAN","control_field",0.735613,0.000012,,0x0000000000000008,,,
"CAN","data_field",0.735629,0.000032,,,,,0x03
"CAN","data_field",0.735665,0.000028,,,,,0x5A
"CAN","data_field",0.735697,0.000028,,,,,0x64
"CAN","data_field",0.735729,0.000028,,,,,0x5A
"CAN","data_field",0.735761,0.000028,,,,,0x5A
"CAN","data_field",0.735793,0.000032,,,,,0x00
"CAN","data_field",0.735829,0.000032,,,,,0x5A
"CAN","data_field",0.735865,0.000028,,,,,0xDA
"CAN","crc_field",0.735897,0.000056,,,0x0000000000000EEB,,
"CAN","ack_field",0.735961,0.000004,,,,true,
"CAN","identifier_field",0.736013,0.000056,0x0000000000000301,,,,
"CAN","control_field",0.736073,0.000016,,0x0000000000000003,,,
"CAN","data_field",0.736093,0.000032,,,,,0xC6
"CAN","data_field",0.736129,0.000032,,,,,0x0A
"CAN","data_field",0.736165,0.000032,,,,,0x00
