name,type,start_time,duration,"identifier","num_data_bytes","crc","ack","data"
"CAN","identifier_field",0.022352,0.00006,0x0000000000000300,,,,
"CAN","control_field",0.022416,0.000012,,0x0000000000000008,,,
"CAN","data_field",0.022432,0.000032,,,,,0x03
"CAN","data_field",0.022468,0.000028,,,,,0x5A
"CAN","data_field",0.0225,0.000028,,,,,0x64
"CAN","data_field",0.022532,0.000028,,,,,0x5A
"CAN","data_field",0.022564,0.000028,,,,,0x64
"CAN","data_field",0.022596,0.000032,,,,,0x00
"CAN","data_field",0.022636,0.000028,,,,,0x64
"CAN","data_field",0.022668,0.000032,,,,,0xBE
"CAN","crc_field",0.022704,0.000056,,,0x0000000000005279,,
"CAN","ack_field",0.022768,0.000004,,,,true,
"CAN","identifier_field",0.02282,0.000056,0x0000000000000301,,,,
"CAN","control_field",0.02288,0.000016,,0x0000000000000003,,,
"CAN","data_field",0.0229,0.000028,,,,,0x1D
"CAN","data_field",0.022932,0.000028,,,,,0x0E
"CAN","data_field",0.022964,0.000032,,,,,0x00
"CAN","crc_field",0.023,0.00006,,,0x00000000000060D7,,
"CAN","ack_field",0.023068,0.000004,,,,true,
"CAN","identifier_field",0.072359,0.00006,0x0000000000000300,,,,
"CAN","control_field",0.072423,0.000012,,0x0000000000000008,,,
"CAN","data_field",0.072439,0.000032,,,,,0x03
"CAN","data_field",0.072475,0.000028,,,,,0x5A
"CAN","data_field",0.072507,0.000028,,,,,0x64
"CAN","data_field",0.072539,0.000028,,,,,0x5A
"CAN","data_field",0.072571,0.000028,,,,,0x64
"CAN","data_field",0.072603,0.000032,,,,,0x00
"CAN","data_field",0.072643,0.000028,,,,,0x64
"CAN","data_field",0.072675,0.000028,,,,,0xAF
"CAN","crc_field",0.072707,0.000056,,,0x0000000000003A77,,
"CAN","ack_field",0.072771,0.000004,,,,true,
"CAN","identifier_field",0.072823,0.000056,0x0000000000000301,,,,
"CAN","control_field",0.072883,0.000016,,0x0000000000000003,,,
"CAN","data_field",0.072903,0.000032,,,,,0xE8
"CAN","data_field",0.072939,0.000032,,,,,0x0F
"CAN","data_field",0.072975,0.000032,,,,,0x00
"CAN","crc_field",0.073011,0.000056,,,0x00000000000077B9,,
"CAN","ack_field",0.073075,0.000004,,,,true,
"CAN","identifier_field",0.122364,0.00006,0x0000000000000300,,,,
"CAN","control_field",0.122428,0.000012,,0x0000000000000008,,,
"CAN","data_field",0.122444,0.000032,,,,,0x03
"CAN","data_field",0.12248,0.000028,,,,,0x5A
"CAN","data_field",0.122512,0.000028,,,,,0x64
"CAN","data_field",0.122544,0.000028,,,,,0x5A
"CAN","data_field",0.122576,0.000028,,,,,0x64
"CAN","data_field",0.122608,0.000032,,,,,0x00
"CAN","data_field",0.122648,0.000028,,,,,0x64
"CAN","data_field",0.12268,0.000028,,,,,0x30
"CAN","crc_field",0.122712,0.000064,,,0x0000000000001209,,
"CAN","ack_field",0.122784,0.000004,,,,true,
"CAN","identifier_field",0.122836,0.000056,0x0000000000000301,,,,
"CAN","control_field",0.122896,0.000016,,0x0000000000000003,,,
"CAN","data_field",0.122916,0.000032,,,,,0xE2
"CAN","data_field",0.122952,0.000032,,,,,0x00
"CAN","data_field",0.122988,0.000036,,,,,0x00
"CAN","crc_field",0.123028,0.000056,,,0x0000000000002F6A,,
"CAN","ack_field",0.123092,0.000004,,,,true,
"CAN","identifier_field",0.172366,0.00006,0x0000000000000300,,,,
"CAN","control_field",0.17243,0.000012,,0x0000000000000008,,,
"CAN","data_field",0.172446,0.000032,,,,,0x03
"CAN","data_field",0.172482,0.000028,,,,,0x5A
"CAN","data_field",0.172514,0.000028,,,,,0x64
"CAN","data_field",0.172546,0.000028,,,,,0x5A
"CAN","data_field",0.172578,0.000028,,,,,0x64
"CAN","data_field",0.17261,0.000032,,,,,0x00
"CAN","data_field",0.17265,0.000028,,,,,0x64
"CAN","data_field",0.172682,0.000028,,,,,0x21
"CAN","crc_field",0.172714,0.000064,,,0x0000000000007A07,,
"CAN","ack_field",0.172786,0.000004,,,,true,
"CAN","identifier_field",0.172838,0.000056,0x0000000000000301,,,,
"CAN","control_field",0.172898,0.000016,,0x0000000000000003,,,
"CAN","data_field",0.172918,0.000028,,,,,0xB3
"CAN","data_field",0.17295,0.000032,,,,,0x01
"CAN","data_field",0.172986,0.000032,,,,,0x00
"CAN","crc_field",0.173022,0.00006,,,0x0000000000007FC5,,
"CAN","ack_field",0.17309,0.000004,,,,true,
"CAN","identifier_field",0.22415,0.00006,0x0000000000000300,,,,
"CAN","control_field",0.224214,0.000012,,0x0000000000000008,,,
"CAN","data_field",0.22423,0.000032,,,,,0x03
"CAN","data_field",0.224266,0.000028,,,,,0x5A
"CAN","data_field",0.224298,0.000028,,,,,0x64
"CAN","data_field",0.22433,0.000028,,,,,0x5A
"CAN","data_field",0.224362,0.000028,,,,,0x64
"CAN","data_field",0.224394,0.000032,,,,,0x00
"CAN","data_field",0.224434,0.000028,,,,,0x64
"CAN","data_field",0.224466,0.000028,,,,,0x32
"CAN","crc_field",0.224498,0.000056,,,0x0000000000005CA2,,
"CAN","ack_field",0.224562,0.000004,,,,true,
"CAN","identifier_field",0.224614,0.000056,0x0000000000000301,,,,
"CAN","control_field",0.224674,0.000016,,0x0000000000000003,,,
"CAN","data_field",0.224694,0.000028,,,,,0x6B
"CAN","data_field",0.224726,0.000032,,,,,0x02
"CAN","data_field",0.224762,0.000032,,,,,0x00
"CAN","crc_field",0.224798,0.000056,,,0x0000000000004E8A,,
"CAN","ack_field",0.224862,0.000004,,,,true,
"CAN","identifier_field",0.27338,0.00006,0x0000000000000300,,,,
"CAN","control_field",0.273444,0.000012,,0x0000000000000008,,,
"CAN","data_field",0.27346,0.000032,,,,,0x03
"CAN","data_field",0.273496,0.000028,,,,,0x5A
"CAN","data_field",0.273528,0.000028,,,,,0x64
"CAN","data_field",0.27356,0.000028,,,,,0x5A
"CAN","data_field",0.273592,0.000028,,,,,0x64
"CAN","data_field",0.273624,0.000032,,,,,0x00
"CAN","data_field",0.273664,0.000028,,,,,0x64
"CAN","data_field",0.273696,0.000028,,,,,0x23
"CAN","crc_field",0.273728,0.000056,,,0x00000000000034AC,,
"CAN","ack_field",0.273792,0.000004,,,,true,
"CAN","identifier_field",0.273844,0.000056,0x0000000000000301,,,,
"CAN","control_field",0.273904,0.000016,,0x0000000000000003,,,
"CAN","data_field",0.273924,0.000028,,,,,0x96
"CAN","data_field",0.273956,0.000032,,,,,0x03
"CAN","data_field",0.273992,0.000032,,,,,0x00
"CAN","crc_field",0.274028,0.00006,,,0x0000000000000AB9,,
"CAN","ack_field",0.274096,0.000004,,,,true,
"CAN","identifier_field",0.323386,0.00006,0x0000000000000300,,,,
"CAN","control_field",0.32345,0.000012,,0x0000000000000008,,,
"CAN","data_field",0.323466,0.000032,,,,,0x03
"CAN","data_field",0.323502,0.000028,,,,,0x5A
"CAN","data_field",0.323534,0.000028,,,,,0x64
"CAN","data_field",0.323566,0.000028,,,,,0x5A
"CAN","data_field",0.323598,0.000028,,,,,0x64
"CAN","data_field",0.32363,0.000032,,,,,0x00
"CAN","data_field",0.32367,0.000028,,,,,0x64
"CAN","data_field",0.323702,0.000028,,,,,0x34
"CAN","crc_field",0.323734,0.000056,,,0x0000000000004AC6,,
"CAN","ack_field",0.323798,0.000004,,,,true,
"CAN","identifier_field",0.32385,0.000056,0x0000000000000301,,,,
"CAN","control_field",0.32391,0.000016,,0x0000000000000003,,,
"CAN","data_field",0.32393,0.000032,,,,,0x03
"CAN","data_field",0.323966,0.000032,,,,,0x04
"CAN","data_field",0.324002,0.000032,,,,,0x00
"CAN","crc_field",0.324042,0.000056,,,0x0000000000000A50,,
"CAN","ack_field",0.324106,0.000004,,,,true,
"CAN","identifier_field",0.373388,0.00006,0x0000000000000300,,,,
"CAN","control_field",0.373452,0.000012,,0x0000000000000008,,,
"CAN","data_field",0.373468,0.000032,,,,,0x03
"CAN","data_field",0.373504,0.000028,,,,,0x5A
"CAN","data_field",0.373536,0.000028,,,,,0x64
"CAN","data_field",0.373568,0.000028,,,,,0x5A
"CAN","data_field",0.3736,0.000028,,,,,0x64
"CAN","data_field",0.373632,0.000032,,,,,0x00
"CAN","data_field",0.373672,0.000028,,,,,0x64
"CAN","data_field",0.373704,0.000028,,,,,0x25
"CAN","crc_field",0.373736,0.000056,,,0x00000000000022C8,,
"CAN","ack_field",0.3738,0.000004,,,,true,
"CAN","identifier_field",0.373852,0.000056,0x0000000000000301,,,,
"CAN","control_field",0.373912,0.000016,,0x0000000000000003,,,
"CAN","data_field",0.373932,0.000028,,,,,0x54
"CAN","data_field",0.373964,0.000032,,,,,0x05
"CAN","data_field",0.374,0.000032,,,,,0x00
"CAN","crc_field",0.374036,0.000056,,,0x000000000000342C,,
"CAN","ack_field",0.3741,0.000004,,,,true,
"CAN","identifier_field",0.423397,0.00006,0x0000000000000300,,,,
"CAN","control_field",0.423461,0.000012,,0x0000000000000008,,,
"CAN","data_field",0.423477,0.000032,,,,,0x03
"CAN","data_field",0.423513,0.000028,,,,,0x5A
"CAN","data_field",0.423545,0.000028,,,,,0x64
"CAN","data_field",0.423577,0.000028,,,,,0x5A
"CAN","data_field",0.423609,0.000028,,,,,0x64
"CAN","data_field",0.423641,0.000032,,,,,0x00
"CAN","data_field",0.423681,0.000028,,,,,0x64
"CAN","data_field",0.423713,0.000028,,,,,0x36
"CAN","crc_field",0.423745,0.00006,,,0x000000000000046D,,
"CAN","ack_field",0.423813,0.000004,,,,true,
"CAN","identifier_field",0.423865,0.000056,0x0000000000000301,,,,
"CAN","control_field",0.423925,0.000016,,0x0000000000000003,,,
"CAN","data_field",0.423945,0.000032,,,,,0xF5
"CAN","data_field",0.423981,0.000032,,,,,0x06
"CAN","data_field",0.424017,0.000032,,,,,0x00
"CAN","crc_field",0.424053,0.00006,,,0x0000000000004168,,
"CAN","ack_field",0.424121,0.000004,,,,true,
"CAN","identifier_field",0.4734,0.00006,0x0000000000000300,,,,
"CAN","control_field",0.473464,0.000012,,0x0000000000000008,,,
"CAN","data_field",0.47348,0.000032,,,,,0x03
"CAN","data_field",0.473516,0.000028,,,,,0x5A
"CAN","data_field",0.473548,0.000028,,,,,0x64
"CAN","data_field",0.47358,0.000028,,,,,0x5A
"CAN","data_field",0.473612,0.000028,,,,,0x64
"CAN","data_field",0.473644,0.000032,,,,,0x00
"CAN","data_field",0.473684,0.000028,,,,,0x64
"CAN","data_field",0.473716,0.000028,,,,,0x27
"CAN","crc_field",0.473748,0.00006,,,0x0000000000006C63,,
"CAN","ack_field",0.473816,0.000004,,,,true,
"CAN","identifier_field",0.473868,0.000056,0x0000000000000301,,,,
"CAN","control_field",0.473928,0.000016,,0x0000000000000003,,,
"CAN","data_field",0.473948,0.000028,,,,,0xB8
"CAN","data_field",0.47398,0.000032,,,,,0x07
"CAN","data_field",0.474016,0.000032,,,,,0x00
"CAN","crc_field",0.474052,0.000056,,,0x0000000000006ADB,,
"CAN","ack_field",0.474116,0.000004,,,,true,
"CAN","identifier_field",0.523404,0.00006,0x0000000000000300,,,,
"CAN","control_field",0.523468,0.000012,,0x0000000000000008,,,
"CAN","data_field",0.523484,0.000032,,,,,0x03
"CAN","data_field",0.52352,0.000028,,,,,0x5A
"CAN","data_field",0.523552,0.000028,,,,,0x64
"CAN","data_field",0.523584,0.000028,,,,,0x5A
"CAN","data_field",0.523616,0.000028,,,,,0x64
"CAN","data_field",0.523648,0.000032,,,,,0x00
"CAN","data_field",0.523688,0.000028,,,,,0x64
"CAN","data_field",0.52372,0.000028,,,,,0xB8
"CAN","crc_field",0.523752,0.00006,,,0x000000000000441D,,
"CAN","ack_field",0.52382,0.000004,,,,true,
"CAN","identifier_field",0.523872,0.000056,0x0000000000000301,,,,
"CAN","control_field",0.523932,0.000016,,0x0000000000000003,,,
"CAN","data_field",0.523952,0.000032,,,,,0x80
"CAN","data_field",0.523988,0.000032,,,,,0x08
"CAN","data_field",0.524024,0.000036,,,,,0x00
"CAN","crc_field",0.524064,0.000056,,,0x0000000000007745,,
"CAN","ack_field",0.524128,0.000004,,,,true,
"CAN","identifier_field",0.573411,0.00006,0x0000000000000300,,,,
"CAN","control_field",0.573475,0.000012,,0x0000000000000008,,,
"CAN","data_field",0.573491,0.000032,,,,,0x03
"CAN","data_field",0.573527,0.000028,,,,,0x5A
"CAN","data_field",0.573559,0.000028,,,,,0x64
"CAN","data_field",0.573591,0.000028,,,,,0x5A
"CAN","data_field",0.573623,0.000028,,,,,0x64
"CAN","data_field",0.573655,0.000032,,,,,0x00
"CAN","data_field",0.573695,0.000028,,,,,0x64
"CAN","data_field",0.573727,0.000028,,,,,0xA9
"CAN","crc_field",0.573759,0.00006,,,0x0000000000002C13,,
"CAN","ack_field",0.573827,0.000004,,,,true,
"CAN","identifier_field",0.573879,0.000056,0x0000000000000301,,,,
"CAN","control_field",0.573939,0.000016,,0x0000000000000003,,,
"CAN","data_field",0.573959,0.000028,,,,,0x88
"CAN","data_field",0.573991,0.000032,,,,,0x09
"CAN","data_field",0.574027,0.000032,,,,,0x00
"CAN","crc_field",0.574063,0.000064,,,0x000000000000603E,,
"CAN","ack_field",0.574135,0.000004,,,,true,
"CAN","identifier_field",0.623417,0.00006,0x0000000000000300,,,,
"CAN","control_field",0.623481,0.000012,,0x0000000000000008,,,
"CAN","data_field",0.623497,0.000032,,,,,0x03
"CAN","data_field",0.623533,0.000028,,,,,0x5A
"CAN","data_field",0.623565,0.000028,,,,,0x64
"CAN","data_field",0.623597,0.000028,,,,,0x5A
"CAN","data_field",0.623629,0.000028,,,,,0x64
"CAN","data_field",0.623661,0.000032,,,,,0x00
"CAN","data_field",0.623701,0.000028,,,,,0x64
"CAN","data_field",0.623733,0.000028,,,,,0xBA
"CAN","crc_field",0.623765,0.000056,,,0x0000000000000AB6,,
"CAN","ack_field",0.623829,0.000004,,,,true,
"CAN","identifier_field",0.623881,0.000056,0x0000000000000301,,,,
"CAN","control_field",0.623941,0.000016,,0x0000000000000003,,,
"CAN","data_field",0.623961,0.000032,,,,,0xC6
"CAN","data_field",0.623997,0.000032,,,,,0x0A
"CAN","data_field",0.624033,0.000032,,,,,0x00
"CAN","crc_field",0.624069,0.00006,,,0x00000000000053FD,,
"CAN","ack_field",0.624137,0.000004,,,,true,
"CAN","identifier_field",0.67342,0.00006,0x0000000000000300,,,,
"CAN","control_field",0.673484,0.000012,,0x0000000000000008,,,
"CAN","data_field",0.6735,0.000032,,,,,0x03
"CAN","data_field",0.673536,0.000028,,,,,0x5A
"CAN","data_field",0.673568,0.000028,,,,,0x64
"CAN","data_field",0.6736,0.000028,,,,,0x5A
"CAN","data_field",0.673632,0.000028,,,,,0x64
"CAN","data_field",0.673664,0.000032,,,,,0x00
"CAN","data_field",0.673704,0.000028,,,,,0x64
"CAN","data_field",0.673736,0.000028,,,,,0xAB
"CAN","crc_field",0.673768,0.000056,,,0x00000000000062B8,,
"CAN","ack_field",0.673832,0.000004,,,,true,
"CAN","identifier_field",0.673884,0.000056,0x0000000000000301,,,,
"CAN","control_field",0.673944,0.000016,,0x0000000000000003,,,
"CAN","data_field",0.673964,0.000028,,,,,0x43
"CAN","data_field",0.673996,0.000028,,,,,0x0B
"CAN","data_field",0.674028,0.000032,,,,,0x00
"CAN","crc_field",0.674064,0.000056,,,0x00000000000023D1,,
"CAN","ack_field",0.674128,0.000004,,,,true,
"CAN","identifier_field",0.723427,0.00006,0x0000000000000300,,,,
"CAN","control_field",0.723491,0.000012,,0x0000000000000008,,,
"CAN","data_field",0.723507,0.000032,,,,,0x03
"CAN","data_field",0.723543,0.000028,,,,,0x5A
"CAN","data_field",0.723575,0.000028,,,,,0x64
"CAN","data_field",0.723607,0.000028,,,,,0x5A
"CAN","data_field",0.723639,0.000028,,,,,0x64
"CAN","data_field",0.723671,0.000032,,,,,0x00
"CAN","data_field",0.723711,0.000028,,,,,0x64
"CAN","data_field",0.723743,0.000028,,,,,0xBC
"CAN","crc_field",0.723775,0.000056,,,0x0000000000001CD2,,
"CAN","ack_field",0.723839,0.000004,,,,true,
"CAN","identifier_field",0.723891,0.000056,0x0000000000000301,,,,
"CAN","control_field",0.723951,0.000016,,0x0000000000000003,,,
"CAN","data_field",0.723971,0.000028,,,,,0xB5
"CAN","data_field",0.724003,0.000028,,,,,0x0C
"CAN","data_field",0.724035,0.000032,,,,,0x00
"CAN","crc_field",0.724075,0.00006,,,0x00000000000072FC,,
"CAN","ack_field",0.724143,0.000004,,,,true,
"CAN","identifier_field",0.773431,0.00006,0x0000000000000300,,,,
"CAN","control_field",0.773495,0.000012,,0x0000000000000008,,,
"CAN","data_field",0.773511,0.000032,,,,,0x03
"CAN","data_field",0.773547,0.000028,,,,,0x5A
"CAN","data_field",0.773579,0.000028,,,,,0x64
"CAN","data_field",0.773611,0.000028,,,,,0x5A
"CAN","data_field",0.773643,0.000028,,,,,0x64
"CAN","data_field",0.773675,0.000032,,,,,0x00
"CAN","data_field",0.773715,0.000028,,,,,0x64
"CAN","data_field",0.773747,0.000028,,,,,0xAD
"CAN","crc_field",0.773779,0.000056,,,0x00000000000074DC,,
"CAN","ack_field",0.773843,0.000004,,,,true,
"CAN","identifier_field",0.773895,0.000056,0x0000000000000301,,,,
"CAN","control_field",0.773955,0.000016,,0x0000000000000003,,,
"CAN","data_field",0.773975,0.000028,,,,,0x4E
"CAN","data_field",0.774007,0.000032,,,,,0x0D
"CAN","data_field",0.774043,0.000032,,,,,0x00
"CAN","crc_field",0.774079,0.00006,,,0x000000000000581C,,
"CAN","ack_field",0.774147,0.000004,,,,true,
"CAN","identifier_field",0.823434,0.00006,0x0000000000000300,,,,
"CAN","control_field",0.823498,0.000012,,0x0000000000000008,,,
"CAN","data_field",0.823514,0.000032,,,,,0x03
"CAN","data_field",0.82355,0.000028,,,,,0x5A
"CAN","data_field",0.823582,0.000028,,,,,0x64
"CAN","data_field",0.823614,0.000028,,,,,0x5A
"CAN","data_field",0.823646,0.000028,,,,,0x64
"CAN","data_field",0.823678,0.000032,,,,,0x00
"CAN","data_field",0.823718,0.000028,,,,,0x64
"CAN","data_field",0.82375,0.000032,,,,,0xBE
"CAN","crc_field",0.823786,0.000056,,,0x0000000000005279,,
"CAN","ack_field",0.82385,0.000004,,,,true,
"CAN","identifier_field",0.823902,0.000056,0x0000000000000301,,,,
"CAN","control_field",0.823962,0.000016,,0x0000000000000003,,,
"CAN","data_field",0.823982,0.000028,,,,,0x1D
"CAN","data_field",0.824014,0.000028,,,,,0x0E
"CAN","data_field",0.824046,0.000032,,,,,0x00
"CAN","crc_field",0.824082,0.00006,,,0x00000000000060D7,,
"CAN","ack_field",0.82415,0.000004,,,,true,
"CAN","identifier_field",0.873443,0.00006,0x0000000000000300,,,,
"CAN","control_field",0.873507,0.000012,,0x0000000000000008,,,
"CAN","data_field",0.873523,0.000032,,,,,0x03
"CAN","data_field",0.873559,0.000028,,,,,0x5A
"CAN","data_field",0.873591,0.000028,,,,,0x64
"CAN","data_field",0.873623,0.000028,,,,,0x5A
"CAN","data_field",0.873655,0.000028,,,,,0x64
"CAN","data_field",0.873687,0.000032,,,,,0x00
"CAN","data_field",0.873727,0.000028,,,,,0x64
"CAN","data_field",0.873759,0.000028,,,,,0xAF
"CAN","crc_field",0.873791,0.000056,,,0x0000000000003A77,,
"CAN","ack_field",0.873855,0.000004,,,,true,
"CAN","identifier_field",0.873907,0.000056,0x0000000000000301,,,,
"CAN","control_field",0.873967,0.000016,,0x0000000000000003,,,
"CAN","data_field",0.873987,0.000032,,,,,0xE8
"CAN","data_field",0.874023,0.000032,,,,,0x0F
"CAN","data_field",0.874059,0.000032,,,,,0x00
"CAN","crc_field",0.874095,0.000056,,,0x00000000000077B9,,
"CAN","ack_field",0.874159,0.000004,,,,true,
"CAN","identifier_field",0.923447,0.00006,0x0000000000000300,,,,
"CAN","control_field",0.923511,0.000012,,0x0000000000000008,,,
"CAN","data_field",0.923527,0.000032,,,,,0x03
"CAN","data_field",0.923563,0.000028,,,,,0x5A
"CAN","data_field",0.923595,0.000028,,,,,0x64
"CAN","data_field",0.923627,0.000028,,,,,0x5A
"CAN","data_field",0.923659,0.000028,,,,,0x64
"CAN","data_field",0.923691,0.000032,,,,,0x00
"CAN","data_field",0.923731,0.000028,,,,,0x64
"CAN","data_field",0.923763,0.000028,,,,,0x30
"CAN","crc_field",0.923795,0.000064,,,0x0000000000001209,,
"CAN","ack_field",0.923867,0.000004,,,,true,
"CAN","identifier_field",0.923919,0.000056,0x0000000000000301,,,,
"CAN","control_field",0.923979,0.000016,,0x0000000000000003,,,
"CAN","data_field",0.923999,0.000032,,,,,0xE2
"CAN","data_field",0.924035,0.000032,,,,,0x00
"CAN","data_field",0.924071,0.000036,,,,,0x00
"CAN","crc_field",0.924111,0.000056,,,0x0000000000002F6A,,
"CAN","ack_field",0.924175,0.000004,,,,true,
"CAN","identifier_field",0.973452,0.00006,0x0000000000000300,,,,
"CAN","control_field",0.973516,0.000012,,0x0000000000000008,,,
"CAN","data_field",0.973532,0.000032,,,,,0x03
"CAN","data_field",0.973568,0.000028,,,,,0x5A
"CAN","data_field",0.9736,0.000028,,,,,0x64
"CAN","data_field",0.973632,0.000028,,,,,0x5A
"CAN","data_field",0.973664,0.000028,,,,,0x64
"CAN","data_field",0.973696,0.000032,,,,,0x00
"CAN","data_field",0.973736,0.000028,,,,,0x64
"CAN","data_field",0.973768,0.000028,,,,,0x21
"CAN","crc_field",0.9738,0.000064,,,0x0000000000007A07,,
"CAN","ack_field",0.973872,0.000004,,,,true,
"CAN","identifier_field",0.973924,0.000056,0x0000000000000301,,,,
"CAN","control_field",0.973984,0.000016,,0x0000000000000003,,,
"CAN","data_field",0.974004,0.000028,,,,,0xB3
"CAN","data_field",0.974036,0.000032,,,,,0x01
"CAN","data_field",0.974072,0.000032,,,,,0x00
"CAN","crc_field",0.974108,0.00006,,,0x0000000000007FC5,,
"CAN","ack_field",0.974176,0.000004,,,,true,
"CAN","identifier_field",1.023459,0.00006,0x0000000000000300,,,,
"CAN","control_field",1.023523,0.000012,,0x0000000000000008,,,
"CAN","data_field",1.023539,0.000032,,,,,0x03
"CAN","data_field",1.023575,0.000028,,,,,0x5A
"CAN","data_field",1.023607,0.000028,,,,,0x64
"CAN","data_field",1.023639,0.000028,,,,,0x5A
"CAN","data_field",1.023671,0.000028,,,,,0x64
"CAN","data_field",1.023703,0.000032,,,,,0x00
"CAN","data_field",1.023743,0.000028,,,,,0x64
"CAN","data_field",1.023775,0.000028,,,,,0x32
"CAN","crc_field",1.023807,0.000056,,,0x0000000000005CA2,,
