name,type,start_time,duration,"identifier","extended","num_data_bytes","RemoteFrame","remote_frame","crc","ack","data"
"CAN","identifier_field",0.035302,0.00006,0x0000000000000300,,,,,,,
"CAN","control_field",0.035366,0.000012,,,0x0000000000000008,,,,,
"CAN","data_field",0.035382,0.000032,,,,,,,,0x03
"CAN","data_field",0.035418,0.000028,,,,,,,,0x5A
"CAN","data_field",0.03545,0.000028,,,,,,,,0x64
"CAN","data_field",0.035482,0.000028,,,,,,,,0x5A
"CAN","data_field",0.035514,0.000028,,,,,,,,0x64
"CAN","data_field",0.035546,0.000032,,,,,,,,0x00
"CAN","data_field",0.035586,0.000028,,,,,,,,0x64
"CAN","data_field",0.035618,0.000028,,,,,,,,0x30
"CAN","crc_field",0.03565,0.000064,,,,,,0x0000000000001209,,
"CAN","ack_field",0.035722,0.000004,,,,,,,true,
"CAN","identifier_field",0.035774,0.000056,0x0000000000000301,,,,,,,
"CAN","control_field",0.035834,0.000016,,,0x0000000000000003,,,,,
"CAN","data_field",0.035854,0.000032,,,,,,,,0xE2
"CAN","data_field",0.03589,0.000032,,,,,,,,0x00
"CAN","data_field",0.035926,0.000036,,,,,,,,0x00
"CAN","crc_field",0.035966,0.000056,,,,,,0x0000000000002F6A,,
"CAN","ack_field",0.03603,0.000004,,,,,,,true,
"CAN","identifier_field",0.08531,0.00006,0x0000000000000300,,,,,,,
"CAN","control_field",0.085374,0.000012,,,0x0000000000000008,,,,,
"CAN","data_field",0.08539,0.000032,,,,,,,,0x03
"CAN","data_field",0.085426,0.000028,,,,,,,,0x5A
"CAN","data_field",0.085458,0.000028,,,,,,,,0x64
"CAN","data_field",0.08549,0.000028,,,,,,,,0x5A
"CAN","data_field",0.085522,0.000028,,,,,,,,0x64
"CAN","data_field",0.085554,0.000032,,,,,,,,0x00
"CAN","data_field",0.085594,0.000028,,,,,,,,0x64
"CAN","data_field",0.085626,0.000028,,,,,,,,0x21
"CAN","crc_field",0.085658,0.000064,,,,,,0x0000000000007A07,,
"CAN","ack_field",0.08573,0.000004,,,,,,,true,
"CAN","identifier_field",0.085782,0.000056,0x0000000000000301,,,,,,,
"CAN","control_field",0.085842,0.000016,,,0x0000000000000003,,,,,
"CAN","data_field",0.085862,0.000028,,,,,,,,0xB3
"CAN","data_field",0.085894,0.000032,,,,,,,,0x01
"CAN","data_field",0.08593,0.000032,,,,,,,,0x00
"CAN","crc_field",0.085966,0.00006,,,,,,0x0000000000007FC5,,
"CAN","ack_field",0.086034,0.000004,,,,,,,true,
"CAN","identifier_field",0.135314,0.00006,0x0000000000000300,,,,,,,
"CAN","control_field",0.135378,0.000012,,,0x0000000000000008,,,,,
"CAN","data_field",0.135394,0.000032,,,,,,,,0x03
"CAN","data_field",0.13543,0.000028,,,,,,,,0x5A
"CAN","data_field",0.135462,0.000028,,,,,,,,0x64
"CAN","data_field",0.135494,0.000028,,,,,,,,0x5A
"CAN","data_field",0.135526,0.000028,,,,,,,,0x64
"CAN","data_field",0.135558,0.000032,,,,,,,,0x00
"CAN","data_field",0.135598,0.000028,,,,,,,,0x64
"CAN","data_field",0.13563,0.000028,,,,,,,,0x32
"CAN","crc_field",0.135662,0.000056,,,,,,0x0000000000005CA2,,
"CAN","ack_field",0.135726,0.000004,,,,,,,true,
"CAN","identifier_field",0.135778,0.000056,0x0000000000000301,,,,,,,
"CAN","control_field",0.135838,0.000016,,,0x0000000000000003,,,,,
"CAN","data_field",0.135858,0.000028,,,,,,,,0x6B
"CAN","data_field",0.13589,0.000032,,,,,,,,0x02
"CAN","data_field",0.135926,0.000032,,,,,,,,0x00
"CAN","crc_field",0.135962,0.000056,,,,,,0x0000000000004E8A,,
"CAN","ack_field",0.136026,0.000004,,,,,,,true,
"CAN","identifier_field",0.18532,0.00006,0x0000000000000300,,,,,,,
"CAN","control_field",0.185384,0.000012,,,0x0000000000000008,,,,,
"CAN","data_field",0.1854,0.000032,,,,,,,,0x03
"CAN","data_field",0.185436,0.000028,,,,,,,,0x5A
"CAN","data_field",0.185468,0.000028,,,,,,,,0x64
"CAN","data_field",0.1855,0.000028,,,,,,,,0x5A
"CAN","data_field",0.185532,0.000028,,,,,,,,0x64
"CAN","data_field",0.185564,0.000032,,,,,,,,0x00
"CAN","data_field",0.185604,0.000028,,,,,,,,0x64
"CAN","data_field",0.185636,0.000028,,,,,,,,0x23
"CAN","crc_field",0.185668,0.000056,,,,,,0x00000000000034AC,,
"CAN","ack_field",0.185732,0.000004,,,,,,,true,
"CAN","identifier_field",0.185784,0.000056,0x0000000000000301,,,,,,,
"CAN","control_field",0.185844,0.000016,,,0x0000000000000003,,,,,
"CAN","data_field",0.185864,0.000028,,,,,,,,0x96
"CAN","data_field",0.185896,0.000032,,,,,,,,0x03
"CAN","data_field",0.185932,0.000032,,,,,,,,0x00
"CAN","crc_field",0.185968,0.00006,,,,,,0x0000000000000AB9,,
"CAN","ack_field",0.186036,0.000004,,,,,,,true,
"CAN","identifier_field",0.235657,0.00006,0x0000000000000300,,,,,,,
"CAN","control_field",0.235721,0.000012,,,0x0000000000000008,,,,,
"CAN","data_field",0.235737,0.000032,,,,,,,,0x03
"CAN","data_field",0.235773,0.000028,,,,,,,,0x5A
"CAN","data_field",0.235805,0.000028,,,,,,,,0x64
"CAN","data_field",0.235837,0.000028,,,,,,,,0x5A
"CAN","data_field",0.235869,0.000028,,,,,,,,0x64
"CAN","data_field",0.235901,0.000032,,,,,,,,0x00
"CAN","data_field",0.235941,0.000028,,,,,,,,0x64
"CAN","data_field",0.235973,0.000028,,,,,,,,0x34
"CAN","crc_field",0.236005,0.000056,,,,,,0x0000000000004AC6,,
"CAN","ack_field",0.236069,0.000004,,,,,,,true,
"CAN","identifier_field",0.236122,0.000056,0x0000000000000301,,,,,,,
"CAN","control_field",0.236182,0.000016,,,0x0000000000000003,,,,,
"CAN","data_field",0.236202,0.000032,,,,,,,,0x03
"CAN","data_field",0.236238,0.000032,,,,,,,,0x04
"CAN","data_field",0.236274,0.000032,,,,,,,,0x00
"CAN","crc_field",0.236314,0.000056,,,,,,0x0000000000000A50,,
"CAN","ack_field",0.236378,0.000004,,,,,,,true,
"CAN","identifier_field",0.285329,0.00006,0x0000000000000300,,,,,,,
"CAN","control_field",0.285393,0.000012,,,0x0000000000000008,,,,,
"CAN","data_field",0.285409,0.000032,,,,,,,,0x03
"CAN","data_field",0.285445,0.000028,,,,,,,,0x5A
"CAN","data_field",0.285477,0.000028,,,,,,,,0x64
"CAN","data_field",0.285509,0.000028,,,,,,,,0x5A
"CAN","data_field",0.285541,0.000028,,,,,,,,0x64
"CAN","data_field",0.285573,0.000032,,,,,,,,0x00
"CAN","data_field",0.285613,0.000028,,,,,,,,0x64
"CAN","data_field",0.285645,0.000028,,,,,,,,0x25
"CAN","crc_field",0.285677,0.000056,,,,,,0x00000000000022C8,,
"CAN","ack_field",0.285741,0.000004,,,,,,,true,
"CAN","identifier_field",0.285793,0.000056,0x0000000000000301,,,,,,,
"CAN","control_field",0.285853,0.000016,,,0x0000000000000003,,,,,
"CAN","data_field",0.285873,0.000028,,,,,,,,0x54
"CAN","data_field",0.285905,0.000032,,,,,,,,0x05
"CAN","data_field",0.285941,0.000032,,,,,,,,0x00
"CAN","crc_field",0.285977,0.000056,,,,,,0x000000000000342C,,
"CAN","ack_field",0.286041,0.000004,,,,,,,true,
"CAN","identifier_field",0.335334,0.00006,0x0000000000000300,,,,,,,
"CAN","control_field",0.335398,0.000012,,,0x0000000000000008,,,,,
"CAN","data_field",0.335414,0.000032,,,,,,,,0x03
"CAN","data_field",0.33545,0.000028,,,,,,,,0x5A
"CAN","data_field",0.335482,0.000028,,,,,,,,0x64
"CAN","data_field",0.335514,0.000028,,,,,,,,0x5A
"CAN","data_field",0.335546,0.000028,,,,,,,,0x64
"CAN","data_field",0.335578,0.000032,,,,,,,,0x00
"CAN","data_field",0.335618,0.000028,,,,,,,,0x64
"CAN","data_field",0.33565,0.000028,,,,,,,,0x36
"CAN","crc_field",0.335682,0.00006,,,,,,0x000000000000046D,,
"CAN","ack_field",0.33575,0.000004,,,,,,,true,
"CAN","identifier_field",0.335802,0.000056,0x0000000000000301,,,,,,,
"CAN","control_field",0.335862,0.000016,,,0x0000000000000003,,,,,
"CAN","data_field",0.335882,0.000032,,,,,,,,0xF5
"CAN","data_field",0.335918,0.000032,,,,,,,,0x06
"CAN","data_field",0.335954,0.000032,,,,,,,,0x00
"CAN","crc_field",0.33599,0.00006,,,,,,0x0000000000004168,,
"CAN","ack_field",0.336058,0.000004,,,,,,,true,
"CAN","identifier_field",0.385341,0.00006,0x0000000000000300,,,,,,,
"CAN","control_field",0.385405,0.000012,,,0x0000000000000008,,,,,
"CAN","data_field",0.385421,0.000032,,,,,,,,0x03
"CAN","data_field",0.385457,0.000028,,,,,,,,0x5A
"CAN","data_field",0.385489,0.000028,,,,,,,,0x64
"CAN","data_field",0.385521,0.000028,,,,,,,,0x5A
"CAN","data_field",0.385553,0.000028,,,,,,,,0x64
"CAN","data_field",0.385585,0.000032,,,,,,,,0x00
"CAN","data_field",0.385625,0.000028,,,,,,,,0x64
"CAN","data_field",0.385657,0.000028,,,,,,,,0x27
"CAN","crc_field",0.385689,0.00006,,,,,,0x0000000000006C63,,
"CAN","ack_field",0.385757,0.000004,,,,,,,true,
"CAN","identifier_field",0.385809,0.000056,0x0000000000000301,,,,,,,
"CAN","control_field",0.385869,0.000016,,,0x0000000000000003,,,,,
"CAN","data_field",0.385889,0.000028,,,,,,,,0xB8
"CAN","data_field",0.385921,0.000032,,,,,,,,0x07
"CAN","data_field",0.385957,0.000032,,,,,,,,0x00
"CAN","crc_field",0.385993,0.000056,,,,,,0x0000000000006ADB,,
"CAN","ack_field",0.386057,0.000004,,,,,,,true,
"CAN","identifier_field",0.435345,0.00006,0x0000000000000300,,,,,,,
"CAN","control_field",0.435409,0.000012,,,0x0000000000000008,,,,,
"CAN","data_field",0.435425,0.000032,,,,,,,,0x03
"CAN","data_field",0.435461,0.000028,,,,,,,,0x5A
"CAN","data_field",0.435493,0.000028,,,,,,,,0x64
"CAN","data_field",0.435525,0.000028,,,,,,,,0x5A
"CAN","data_field",0.435557,0.000028,,,,,,,,0x64
"CAN","data_field",0.435589,0.000032,,,,,,,,0x00
"CAN","data_field",0.435629,0.000028,,,,,,,,0x64
"CAN","data_field",0.435661,0.000028,,,,,,,,0xB8
"CAN","crc_field",0.435693,0.00006,,,,,,0x000000000000441D,,
"CAN","ack_field",0.435761,0.000004,,,,,,,true,
"CAN","identifier_field",0.435813,0.000056,0x0000000000000301,,,,,,,
"CAN","control_field",0.435873,0.000016,,,0x0000000000000003,,,,,
"CAN","data_field",0.435893,0.000032,,,,,,,,0x80
"CAN","data_field",0.435929,0.000032,,,,,,,,0x08
"CAN","data_field",0.435965,0.000036,,,,,,,,0x00
"CAN","crc_field",0.436005,0.000056,,,,,,0x0000000000007745,,
"CAN","ack_field",0.436069,0.000004,,,,,,,true,
"CAN","identifier_field",0.485349,0.00006,0x0000000000000300,,,,,,,
"CAN","control_field",0.485413,0.000012,,,0x0000000000000008,,,,,
"CAN","data_field",0.485429,0.000032,,,,,,,,0x03
"CAN","data_field",0.485465,0.000028,,,,,,,,0x5A
"CAN","data_field",0.485497,0.000028,,,,,,,,0x64
"CAN","data_field",0.485529,0.000028,,,,,,,,0x5A
"CAN","data_field",0.485561,0.000028,,,,,,,,0x64
"CAN","data_field",0.485593,0.000032,,,,,,,,0x00
"CAN","data_field",0.485633,0.000028,,,,,,,,0x64
"CAN","data_field",0.485665,0.000028,,,,,,,,0xA9
"CAN","crc_field",0.485697,0.00006,,,,,,0x0000000000002C13,,
"CAN","ack_field",0.485765,0.000004,,,,,,,true,
"CAN","identifier_field",0.485817,0.000056,0x0000000000000301,,,,,,,
"CAN","control_field",0.485877,0.000016,,,0x0000000000000003,,,,,
"CAN","data_field",0.485897,0.000028,,,,,,,,0x88
"CAN","data_field",0.485929,0.000032,,,,,,,,0x09
"CAN","data_field",0.485965,0.000032,,,,,,,,0x00
"CAN","crc_field",0.486001,0.000064,,,,,,0x000000000000603E,,
"CAN","ack_field",0.486073,0.000004,,,,,,,true,
"CAN","identifier_field",0.535357,0.00006,0x0000000000000300,,,,,,,
"CAN","control_field",0.535421,0.000012,,,0x0000000000000008,,,,,
"CAN","data_field",0.535437,0.000032,,,,,,,,0x03
"CAN","data_field",0.535473,0.000028,,,,,,,,0x5A
"CAN","data_field",0.535505,0.000028,,,,,,,,0x64
"CAN","data_field",0.535537,0.000028,,,,,,,,0x5A
"CAN","data_field",0.535569,0.000028,,,,,,,,0x64
"CAN","data_field",0.535601,0.000032,,,,,,,,0x00
"CAN","data_field",0.535641,0.000028,,,,,,,,0x64
"CAN","data_field",0.535673,0.000028,,,,,,,,0xBA
"CAN","crc_field",0.535705,0.000056,,,,,,0x0000000000000AB6,,
"CAN","ack_field",0.535769,0.000004,,,,,,,true,
"CAN","identifier_field",0.535821,0.000056,0x0000000000000301,,,,,,,
"CAN","control_field",0.535881,0.000016,,,0x0000000000000003,,,,,
"CAN","data_field",0.535901,0.000032,,,,,,,,0xC6
"CAN","data_field",0.535937,0.000032,,,,,,,,0x0A
"CAN","data_field",0.535973,0.000032,,,,,,,,0x00
"CAN","crc_field",0.536009,0.00006,,,,,,0x00000000000053FD,,
"CAN","ack_field",0.536077,0.000004,,,,,,,true,
"CAN","identifier_field",0.585362,0.00006,0x0000000000000300,,,,,,,
"CAN","control_field",0.585426,0.000012,,,0x0000000000000008,,,,,
"CAN","data_field",0.585442,0.000032,,,,,,,,0x03
"CAN","data_field",0.585478,0.000028,,,,,,,,0x5A
"CAN","data_field",0.58551,0.000028,,,,,,,,0x64
"CAN","data_field",0.585542,0.000028,,,,,,,,0x5A
"CAN","data_field",0.585574,0.000028,,,,,,,,0x64
"CAN","data_field",0.585606,0.000032,,,,,,,,0x00
"CAN","data_field",0.585646,0.000028,,,,,,,,0x64
"CAN","data_field",0.585678,0.000028,,,,,,,,0xAB
"CAN","crc_field",0.58571,0.000056,,,,,,0x00000000000062B8,,
"CAN","ack_field",0.585774,0.000004,,,,,,,true,
"CAN","identifier_field",0.585826,0.000056,0x0000000000000301,,,,,,,
"CAN","control_field",0.585886,0.000016,,,0x0000000000000003,,,,,
"CAN","data_field",0.585906,0.000028,,,,,,,,0x43
"CAN","data_field",0.585938,0.000028,,,,,,,,0x0B
"CAN","data_field",0.58597,0.000032,,,,,,,,0x00
"CAN","crc_field",0.586006,0.000056,,,,,,0x00000000000023D1,,
"CAN","ack_field",0.58607,0.000004,,,,,,,true,
"CAN","identifier_field",0.635366,0.00006,0x0000000000000300,,,,,,,
"CAN","control_field",0.63543,0.000012,,,0x0000000000000008,,,,,
"CAN","data_field",0.635446,0.000032,,,,,,,,0x03
"CAN","data_field",0.635482,0.000028,,,,,,,,0x5A
"CAN","data_field",0.635514,0.000028,,,,,,,,0x64
"CAN","data_field",0.635546,0.000028,,,,,,,,0x5A
"CAN","data_field",0.635578,0.000028,,,,,,,,0x64
"CAN","data_field",0.63561,0.000032,,,,,,,,0x00
"CAN","data_field",0.63565,0.000028,,,,,,,,0x64
"CAN","data_field",0.635682,0.000028,,,,,,,,0xBC
"CAN","crc_field",0.635714,0.000056,,,,,,0x0000000000001CD2,,
"CAN","ack_field",0.635778,0.000004,,,,,,,true,
"CAN","identifier_field",0.63583,0.000056,0x0000000000000301,,,,,,,
"CAN","control_field",0.63589,0.000016,,,0x0000000000000003,,,,,
"CAN","data_field",0.63591,0.000028,,,,,,,,0xB5
"CAN","data_field",0.635942,0.000028,,,,,,,,0x0C
"CAN","data_field",0.635974,0.000032,,,,,,,,0x00
"CAN","crc_field",0.636014,0.00006,,,,,,0x00000000000072FC,,
"CAN","ack_field",0.636082,0.000004,,,,,,,true,
"CAN","identifier_field",0.686148,0.00006,0x0000000000000300,,,,,,,
"CAN","control_field",0.686212,0.000012,,,0x0000000000000008,,,,,
"CAN","data_field",0.686228,0.000032,,,,,,,,0x03
"CAN","data_field",0.686264,0.000028,,,,,,,,0x5A
"CAN","data_field",0.686296,0.000028,,,,,,,,0x64
"CAN","data_field",0.686328,0.000028,,,,,,,,0x5A
"CAN","data_field",0.68636,0.000028,,,,,,,,0x64
"CAN","data_field",0.686392,0.000032,,,,,,,,0x00
"CAN","data_field",0.686432,0.000028,,,,,,,,0x64
"CAN","data_field",0.686464,0.000028,,,,,,,,0xAD
"CAN","crc_field",0.686496,0.000056,,,,,,0x00000000000074DC,,
"CAN","ack_field",0.68656,0.000004,,,,,,,true,
"CAN","identifier_field",0.686612,0.000056,0x0000000000000301,,,,,,,
"CAN","control_field",0.686672,0.000016,,,0x0000000000000003,,,,,
"CAN","data_field",0.686692,0.000028,,,,,,,,0x4E
"CAN","data_field",0.686724,0.000032,,,,,,,,0x0D
"CAN","data_field",0.68676,0.000032,,,,,,,,0x00
"CAN","crc_field",0.686796,0.00006,,,,,,0x000000000000581C,,
"CAN","ack_field",0.686864,0.000004,,,,,,,true,
"CAN","identifier_field",0.73538,0.00006,0x0000000000000300,,,,,,,
"CAN","control_field",0.735444,0.000012,,,0x0000000000000008,,,,,
"CAN","data_field",0.73546,0.000032,,,,,,,,0x03
"CAN","data_field",0.735496,0.000028,,,,,,,,0x5A
"CAN","data_field",0.735528,0.000028,,,,,,,,0x64
"CAN","data_field",0.73556,0.000028,,,,,,,,0x5A
"CAN","data_field",0.735592,0.000028,,,,,,,,0x64
"CAN","data_field",0.735624,0.000032,,,,,,,,0x00
"CAN","data_field",0.735664,0.000028,,,,,,,,0x64
"CAN","data_field",0.735696,0.000032,,,,,,,,0xBE
"CAN","crc_field",0.735732,0.000056,,,,,,0x0000000000005279,,
"CAN","ack_field",0.735796,0.000004,,,,,,,true,
"CAN","identifier_field",0.735848,0.000056,0x0000000000000301,,,,,,,
"CAN","control_field",0.735908,0.000016,,,0x0000000000000003,,,,,
"CAN","data_field",0.735928,0.000028,,,,,,,,0x1D
"CAN","data_field",0.73596,0.000028,,,,,,,,0x0E
"CAN","data_field",0.735992,0.000032,,,,,,,,0x00
"CAN","crc_field",0.736028,0.00006,,,,,,0x00000000000060D7,,
"CAN","ack_field",0.736096,0.000004,,,,,,,true,
"CAN","identifier_field",0.785384,0.00006,0x0000000000000300,,,,,,,
"CAN","control_field",0.785448,0.000012,,,0x0000000000000008,,,,,
"CAN","data_field",0.785464,0.000032,,,,,,,,0x03
"CAN","data_field",0.7855,0.000028,,,,,,,,0x5A
"CAN","data_field",0.785532,0.000028,,,,,,,,0x64
"CAN","data_field",0.785564,0.000028,,,,,,,,0x5A
"CAN","data_field",0.785596,0.000028,,,,,,,,0x64
"CAN","data_field",0.785628,0.000032,,,,,,,,0x00
"CAN","data_field",0.785668,0.000028,,,,,,,,0x64
"CAN","data_field",0.7857,0.000028,,,,,,,,0xAF
"CAN","crc_field",0.785732,0.000056,,,,,,0x0000000000003A77,,
"CAN","ack_field",0.785796,0.000004,,,,,,,true,
"CAN","identifier_field",0.785848,0.000056,0x0000000000000301,,,,,,,
"CAN","control_field",0.785908,0.000016,,,0x0000000000000003,,,,,
"CAN","data_field",0.785928,0.000032,,,,,,,,0xE8
"CAN","data_field",0.785964,0.000032,,,,,,,,0x0F
"CAN","data_field",0.786,0.000032,,,,,,,,0x00
"CAN","crc_field",0.786036,0.000056,,,,,,0x00000000000077B9,,
"CAN","ack_field",0.7861,0.000004,,,,,,,true,
"CAN","identifier_field",0.835388,0.00006,0x0000000000000300,,,,,,,
"CAN","control_field",0.835452,0.000012,,,0x0000000000000008,,,,,
"CAN","data_field",0.835468,0.000032,,,,,,,,0x03
"CAN","data_field",0.835504,0.000028,,,,,,,,0x5A
"CAN","data_field",0.835536,0.000028,,,,,,,,0x64
"CAN","data_field",0.835568,0.000028,,,,,,,,0x5A
"CAN","data_field",0.8356,0.000028,,,,,,,,0x64
"CAN","data_field",0.835632,0.000032,,,,,,,,0x00
"CAN","data_field",0.835672,0.000028,,,,,,,,0x64
"CAN","data_field",0.835704,0.000028,,,,,,,,0x30
"CAN","crc_field",0.835736,0.000064,,,,,,0x0000000000001209,,
"CAN","ack_field",0.835808,0.000004,,,,,,,true,
"CAN","identifier_field",0.83586,0.000056,0x0000000000000301,,,,,,,
"CAN","control_field",0.83592,0.000016,,,0x0000000000000003,,,,,
"CAN","data_field",0.83594,0.000032,,,,,,,,0xE2
"CAN","data_field",0.835976,0.000032,,,,,,,,0x00
"CAN","data_field",0.836012,0.000036,,,,,,,,0x00
"CAN","crc_field",0.836052,0.000056,,,,,,0x0000000000002F6A,,
"CAN","ack_field",0.836116,0.000004,,,,,,,true,
"CAN","identifier_field",0.885392,0.00006,0x0000000000000300,,,,,,,
"CAN","control_field",0.885456,0.000012,,,0x0000000000000008,,,,,
"CAN","data_field",0.885472,0.000032,,,,,,,,0x03
"CAN","data_field",0.885508,0.000028,,,,,,,,0x5A
"CAN","data_field",0.88554,0.000028,,,,,,,,0x64
"CAN","data_field",0.885572,0.000028,,,,,,,,0x5A
"CAN","data_field",0.885604,0.000028,,,,,,,,0x64
"CAN","data_field",0.885636,0.000032,,,,,,,,0x00
"CAN","data_field",0.885676,0.000028,,,,,,,,0x64
"CAN","data_field",0.885708,0.000028,,,,,,,,0x21
"CAN","crc_field",0.88574,0.000064,,,,,,0x0000000000007A07,,
"CAN","ack_field",0.885812,0.000004,,,,,,,true,
"CAN","identifier_field",0.885864,0.000056,0x0000000000000301,,,,,,,
"CAN","control_field",0.885924,0.000016,,,0x0000000000000003,,,,,
"CAN","data_field",0.885944,0.000028,,,,,,,,0xB3
"CAN","data_field",0.885976,0.000032,,,,,,,,0x01
"CAN","data_field",0.886012,0.000032,,,,,,,,0x00
"CAN","crc_field",0.886048,0.00006,,,,,,0x0000000000007FC5,,
"CAN","ack_field",0.886116,0.000004,,,,,,,true,
"CAN","identifier_field",0.935396,0.00006,0x0000000000000300,,,,,,,
"CAN","control_field",0.93546,0.000012,,,0x0000000000000008,,,,,
"CAN","data_field",0.935476,0.000032,,,,,,,,0x03
"CAN","data_field",0.935512,0.000028,,,,,,,,0x5A
"CAN","data_field",0.935544,0.000028,,,,,,,,0x64
"CAN","data_field",0.935576,0.000028,,,,,,,,0x5A
"CAN","data_field",0.935608,0.000028,,,,,,,,0x64
"CAN","data_field",0.93564,0.000032,,,,,,,,0x00
"CAN","data_field",0.93568,0.000028,,,,,,,,0x64
"CAN","data_field",0.935712,0.000028,,,,,,,,0x32
"CAN","crc_field",0.935744,0.000056,,,,,,0x0000000000005CA2,,
"CAN","ack_field",0.935808,0.000004,,,,,,,true,
"CAN","identifier_field",0.93586,0.000056,0x0000000000000301,,,,,,,
"CAN","control_field",0.93592,0.000016,,,0x0000000000000003,,,,,
"CAN","data_field",0.93594,0.000028,,,,,,,,0x6B
"CAN","data_field",0.935972,0.000032,,,,,,,,0x02
"CAN","data_field",0.936008,0.000032,,,,,,,,0x00
"CAN","crc_field",0.936044,0.000056,,,,,,0x0000000000004E8A,,
"CAN","ack_field",0.936108,0.000004,,,,,,,true,
"CAN","identifier_field",0.986403,0.00006,0x0000000000000300,,,,,,,
"CAN","control_field",0.986467,0.000012,,,0x0000000000000008,,,,,
"CAN","data_field",0.986483,0.000032,,,,,,,,0x03
"CAN","data_field",0.986519,0.000028,,,,,,,,0x5A
"CAN","data_field",0.986551,0.000028,,,,,,,,0x64
"CAN","data_field",0.986583,0.000028,,,,,,,,0x5A
"CAN","data_field",0.986615,0.000028,,,,,,,,0x64
