name,type,start_time,duration,"identifier","num_data_bytes","crc","ack","data"
"CAN","identifier_field",0.011518,0.00006,0x0000000000000300,,,,
"CAN","control_field",0.011582,0.000012,,0x0000000000000008,,,
"CAN","data_field",0.011598,0.000032,,,,,0x03
"CAN","data_field",0.011634,0.000028,,,,,0x5A
"CAN","data_field",0.011666,0.000028,,,,,0x64
"CAN","data_field",0.011698,0.000028,,,,,0x5A
"CAN","data_field",0.01173,0.000028,,,,,0x64
"CAN","data_field",0.011762,0.000032,,,,,0x00
"CAN","data_field",0.011802,0.000028,,,,,0x64
"CAN","data_field",0.011834,0.000028,,,,,0x23
"CAN","crc_field",0.011866,0.000056,,,0x00000000000034AC,,
"CAN","ack_field",0.01193,0.000004,,,,true,
"CAN","identifier_field",0.011982,0.000056,0x0000000000000301,,,,
"CAN","control_field",0.012042,0.000016,,0x0000000000000003,,,
"CAN","data_field",0.012062,0.000028,,,,,0x96
"CAN","data_field",0.012094,0.000032,,,,,0x03
"CAN","data_field",0.01213,0.000032,,,,,0x00
"CAN","crc_field",0.012166,0.00006,,,0x0000000000000AB9,,
"CAN","ack_field",0.012234,0.000004,,,,true,
"CAN","identifier_field",0.061522,0.00006,0x0000000000000300,,,,
"CAN","control_field",0.061586,0.000012,,0x0000000000000008,,,
"CAN","data_field",0.061602,0.000032,,,,,0x03
"CAN","data_field",0.061638,0.000028,,,,,0x5A
"CAN","data_field",0.06167,0.000028,,,,,0x64
"CAN","data_field",0.061702,0.000028,,,,,0x5A
"CAN","data_field",0.061734,0.000028,,,,,0x64
"CAN","data_field",0.061766,0.000032,,,,,0x00
"CAN","data_field",0.061806,0.000028,,,,,0x64
"CAN","data_field",0.061838,0.000028,,,,,0x34
"CAN","crc_field",0.06187,0.000056,,,0x0000000000004AC6,,
"CAN","ack_field",0.061934,0.000004,,,,true,
"CAN","identifier_field",0.061986,0.000056,0x0000000000000301,,,,
"CAN","control_field",0.062046,0.000016,,0x0000000000000003,,,
"CAN","data_field",0.062066,0.000032,,,,,0x03
"CAN","data_field",0.062102,0.000032,,,,,0x04
"CAN","data_field",0.062138,0.000032,,,,,0x00
"CAN","crc_field",0.062178,0.000056,,,0x0000000000000A50,,
"CAN","ack_field",0.062242,0.000004,,,,true,
"CAN","identifier_field",0.111527,0.00006,0x0000000000000300,,,,
"CAN","control_field",0.111591,0.000012,,0x0000000000000008,,,
"CAN","data_field",0.111607,0.000032,,,,,0x03
"CAN","data_field",0.111643,0.000028,,,,,0x5A
"CAN","data_field",0.111675,0.000028,,,,,0x64
"CAN","data_field",0.111707,0.000028,,,,,0x5A
"CAN","data_field",0.111739,0.000028,,,,,0x64
"CAN","data_field",0.111771,0.000032,,,,,0x00
"CAN","data_field",0.111811,0.000028,,,,,0x64
"CAN","data_field",0.111843,0.000028,,,,,0x25
"CAN","crc_field",0.111875,0.000056,,,0x00000000000022C8,,
"CAN","ack_field",0.111939,0.000004,,,,true,
"CAN","identifier_field",0.111991,0.000056,0x0000000000000301,,,,
"CAN","control_field",0.112051,0.000016,,0x0000000000000003,,,
"CAN","data_field",0.112071,0.000028,,,,,0x54
"CAN","data_field",0.112103,0.000032,,,,,0x05
"CAN","data_field",0.112139,0.000032,,,,,0x00
"CAN","crc_field",0.112175,0.000056,,,0x000000000000342C,,
"CAN","ack_field",0.112239,0.000004,,,,true,
"CAN","identifier_field",0.161533,0.00006,0x0000000000000300,,,,
"CAN","control_field",0.161597,0.000012,,0x0000000000000008,,,
"CAN","data_field",0.161613,0.000032,,,,,0x03
"CAN","data_field",0.161649,0.000028,,,,,0x5A
"CAN","data_field",0.161681,0.000028,,,,,0x64
"CAN","data_field",0.161713,0.000028,,,,,0x5A
"CAN","data_field",0.161745,0.000028,,,,,0x64
"CAN","data_field",0.161777,0.000032,,,,,0x00
"CAN","data_field",0.161817,0.000028,,,,,0x64
"CAN","data_field",0.161849,0.000028,,,,,0x36
"CAN","crc_field",0.161881,0.00006,,,0x000000000000046D,,
"CAN","ack_field",0.161949,0.000004,,,,true,
"CAN","identifier_field",0.162001,0.000056,0x0000000000000301,,,,
"CAN","control_field",0.162061,0.000016,,0x0000000000000003,,,
"CAN","data_field",0.162081,0.000032,,,,,0xF5
"CAN","data_field",0.162117,0.000032,,,,,0x06
"CAN","data_field",0.162153,0.000032,,,,,0x00
"CAN","crc_field",0.162189,0.00006,,,0x0000000000004168,,
"CAN","ack_field",0.162257,0.000004,,,,true,
"CAN","identifier_field",0.211535,0.00006,0x0000000000000300,,,,
"CAN","control_field",0.211599,0.000012,,0x0000000000000008,,,
"CAN","data_field",0.211615,0.000032,,,,,0x03
"CAN","data_field",0.211651,0.000028,,,,,0x5A
"CAN","data_field",0.211683,0.000028,,,,,0x64
"CAN","data_field",0.211715,0.000028,,,,,0x5A
"CAN","data_field",0.211747,0.000028,,,,,0x64
"CAN","data_field",0.211779,0.000032,,,,,0x00
"CAN","data_field",0.211819,0.000028,,,,,0x64
"CAN","data_field",0.211851,0.000028,,,,,0x27
"CAN","crc_field",0.211883,0.00006,,,0x0000000000006C63,,
"CAN","ack_field",0.211951,0.000004,,,,true,
"CAN","identifier_field",0.212003,0.000056,0x0000000000000301,,,,
"CAN","control_field",0.212063,0.000016,,0x0000000000000003,,,
"CAN","data_field",0.212083,0.000028,,,,,0xB8
"CAN","data_field",0.212115,0.000032,,,,,0x07
"CAN","data_field",0.212151,0.000032,,,,,0x00
"CAN","crc_field",0.212187,0.000056,,,0x0000000000006ADB,,
"CAN","ack_field",0.212251,0.000004,,,,true,
"CAN","identifier_field",0.261542,0.00006,0x0000000000000300,,,,
"CAN","control_field",0.261606,0.000012,,0x0000000000000008,,,
"CAN","data_field",0.261622,0.000032,,,,,0x03
"CAN","data_field",0.261658,0.000028,,,,,0x5A
"CAN","data_field",0.26169,0.000028,,,,,0x64
"CAN","data_field",0.261722,0.000028,,,,,0x5A
"CAN","data_field",0.261754,0.000028,,,,,0x64
"CAN","data_field",0.261786,0.000032,,,,,0x00
"CAN","data_field",0.261826,0.000028,,,,,0x64
"CAN","data_field",0.261858,0.000028,,,,,0xB8
"CAN","crc_field",0.26189,0.00006,,,0x000000000000441D,,
"CAN","ack_field",0.261958,0.000004,,,,true,
"CAN","identifier_field",0.26201,0.000056,0x0000000000000301,,,,
"CAN","control_field",0.26207,0.000016,,0x0000000000000003,,,
"CAN","data_field",0.26209,0.000032,,,,,0x80
"CAN","data_field",0.262126,0.000032,,,,,0x08
"CAN","data_field",0.262162,0.000036,,,,,0x00
"CAN","crc_field",0.262202,0.000056,,,0x0000000000007745,,
"CAN","ack_field",0.262266,0.000004,,,,true,
"CAN","identifier_field",0.311548,0.00006,0x0000000000000300,,,,
"CAN","control_field",0.311612,0.000012,,0x0000000000000008,,,
"CAN","data_field",0.311628,0.000032,,,,,0x03
"CAN","data_field",0.311664,0.000028,,,,,0x5A
"CAN","data_field",0.311696,0.000028,,,,,0x64
"CAN","data_field",0.311728,0.000028,,,,,0x5A
"CAN","data_field",0.31176,0.000028,,,,,0x64
"CAN","data_field",0.311792,0.000032,,,,,0x00
"CAN","data_field",0.311832,0.000028,,,,,0x64
"CAN","data_field",0.311864,0.000028,,,,,0xA9
"CAN","crc_field",0.311896,0.00006,,,0x0000000000002C13,,
"CAN","ack_field",0.311964,0.000004,,,,true,
"CAN","identifier_field",0.312016,0.000056,0x0000000000000301,,,,
"CAN","control_field",0.312076,0.000016,,0x0000000000000003,,,
"CAN","data_field",0.312096,0.000028,,,,,0x88
"CAN","data_field",0.312128,0.000032,,,,,0x09
"CAN","data_field",0.312164,0.000032,,,,,0x00
"CAN","crc_field",0.3122,0.000064,,,0x000000000000603E,,
"CAN","ack_field",0.312272,0.000004,,,,true,
"CAN","identifier_field",0.361554,0.00006,0x0000000000000300,,,,
"CAN","control_field",0.361618,0.000012,,0x0000000000000008,,,
"CAN","data_field",0.361634,0.000032,,,,,0x03
"CAN","data_field",0.36167,0.000028,,,,,0x5A
"CAN","data_field",0.361702,0.000028,,,,,0x64
"CAN","data_field",0.361734,0.000028,,,,,0x5A
"CAN","data_field",0.361766,0.000028,,,,,0x64
"CAN","data_field",0.361798,0.000032,,,,,0x00
"CAN","data_field",0.361838,0.000028,,,,,0x64
"CAN","data_field",0.36187,0.000028,,,,,0xBA
"CAN","crc_field",0.361902,0.000056,,,0x0000000000000AB6,,
"CAN","ack_field",0.361966,0.000004,,,,true,
"CAN","identifier_field",0.362018,0.000056,0x0000000000000301,,,,
"CAN","control_field",0.362078,0.000016,,0x0000000000000003,,,
"CAN","data_field",0.362098,0.000032,,,,,0xC6
"CAN","data_field",0.362134,0.000032,,,,,0x0A
"CAN","data_field",0.36217,0.000032,,,,,0x00
"CAN","crc_field",0.362206,0.00006,,,0x00000000000053FD,,
"CAN","ack_field",0.362274,0.000004,,,,true,
"CAN","identifier_field",0.411558,0.00006,0x0000000000000300,,,,
"CAN","control_field",0.411622,0.000012,,0x0000000000000008,,,
"CAN","data_field",0.411638,0.000032,,,,,0x03
"CAN","data_field",0.411674,0.000028,,,,,0x5A
"CAN","data_field",0.411706,0.000028,,,,,0x64
"CAN","data_field",0.411738,0.000028,,,,,0x5A
"CAN","data_field",0.41177,0.000028,,,,,0x64
"CAN","data_field",0.411802,0.000032,,,,,0x00
"CAN","data_field",0.411842,0.000028,,,,,0x64
"CAN","data_field",0.411874,0.000028,,,,,0xAB
"CAN","crc_field",0.411906,0.000056,,,0x00000000000062B8,,
"CAN","ack_field",0.41197,0.000004,,,,true,
"CAN","identifier_field",0.412022,0.000056,0x0000000000000301,,,,
"CAN","control_field",0.412082,0.000016,,0x0000000000000003,,,
"CAN","data_field",0.412102,0.000028,,,,,0x43
"CAN","data_field",0.412134,0.000028,,,,,0x0B
"CAN","data_field",0.412166,0.000032,,,,,0x00
"CAN","crc_field",0.412202,0.000056,,,0x00000000000023D1,,
"CAN","ack_field",0.412266,0.000004,,,,true,
"CAN","identifier_field",0.461564,0.00006,0x0000000000000300,,,,
"CAN","control_field",0.461628,0.000012,,0x0000000000000008,,,
"CAN","data_field",0.461644,0.000032,,,,,0x03
"CAN","data_field",0.46168,0.000028,,,,,0x5A
"CAN","data_field",0.461712,0.000028,,,,,0x64
"CAN","data_field",0.461744,0.000028,,,,,0x5A
"CAN","data_field",0.461776,0.000028,,,,,0x64
"CAN","data_field",0.461808,0.000032,,,,,0x00
"CAN","data_field",0.461848,0.000028,,,,,0x64
"CAN","data_field",0.46188,0.000028,,,,,0xBC
"CAN","crc_field",0.461912,0.000056,,,0x0000000000001CD2,,
"CAN","ack_field",0.461976,0.000004,,,,true,
"CAN","identifier_field",0.462028,0.000056,0x0000000000000301,,,,
"CAN","control_field",0.462088,0.000016,,0x0000000000000003,,,
"CAN","data_field",0.462108,0.000028,,,,,0xB5
"CAN","data_field",0.46214,0.000028,,,,,0x0C
"CAN","data_field",0.462172,0.000032,,,,,0x00
"CAN","crc_field",0.462212,0.00006,,,0x00000000000072FC,,
"CAN","ack_field",0.46228,0.000004,,,,true,
"CAN","identifier_field",0.511568,0.00006,0x0000000000000300,,,,
"CAN","control_field",0.511632,0.000012,,0x0000000000000008,,,
"CAN","data_field",0.511648,0.000032,,,,,0x03
"CAN","data_field",0.511684,0.000028,,,,,0x5A
"CAN","data_field",0.511716,0.000028,,,,,0x64
"CAN","data_field",0.511748,0.000028,,,,,0x5A
"CAN","data_field",0.51178,0.000028,,,,,0x64
"CAN","data_field",0.511812,0.000032,,,,,0x00
"CAN","data_field",0.511852,0.000028,,,,,0x64
"CAN","data_field",0.511884,0.000028,,,,,0xAD
"CAN","crc_field",0.511916,0.000056,,,0x00000000000074DC,,
"CAN","ack_field",0.51198,0.000004,,,,true,
"CAN","identifier_field",0.512032,0.000056,0x0000000000000301,,,,
"CAN","control_field",0.512092,0.000016,,0x0000000000000003,,,
"CAN","data_field",0.512112,0.000028,,,,,0x4E
"CAN","data_field",0.512144,0.000032,,,,,0x0D
"CAN","data_field",0.51218,0.000032,,,,,0x00
"CAN","crc_field",0.512216,0.00006,,,0x000000000000581C,,
"CAN","ack_field",0.512284,0.000004,,,,true,
"CAN","identifier_field",0.562258,0.00006,0x0000000000000300,,,,
"CAN","control_field",0.562322,0.000012,,0x0000000000000008,,,
"CAN","data_field",0.562338,0.000032,,,,,0x03
"CAN","data_field",0.562374,0.000028,,,,,0x5A
"CAN","data_field",0.562406,0.000028,,,,,0x64
"CAN","data_field",0.562438,0.000028,,,,,0x5A
"CAN","data_field",0.56247,0.000028,,,,,0x64
"CAN","data_field",0.562502,0.000032,,,,,0x00
"CAN","data_field",0.562542,0.000028,,,,,0x64
"CAN","data_field",0.562574,0.000032,,,,,0xBE
"CAN","crc_field",0.56261,0.000056,,,0x0000000000005279,,
"CAN","ack_field",0.562674,0.000004,,,,true,
"CAN","identifier_field",0.562726,0.000056,0x0000000000000301,,,,
"CAN","control_field",0.562786,0.000016,,0x0000000000000003,,,
"CAN","data_field",0.562806,0.000028,,,,,0x1D
"CAN","data_field",0.562838,0.000028,,,,,0x0E
"CAN","data_field",0.56287,0.000032,,,,,0x00
"CAN","crc_field",0.562906,0.00006,,,0x00000000000060D7,,
"CAN","ack_field",0.562974,0.000004,,,,true,
"CAN","identifier_field",0.612358,0.00006,0x0000000000000300,,,,
"CAN","control_field",0.612422,0.000012,,0x0000000000000008,,,
"CAN","data_field",0.612438,0.000032,,,,,0x03
"CAN","data_field",0.612474,0.000028,,,,,0x5A
"CAN","data_field",0.612506,0.000028,,,,,0x64
"CAN","data_field",0.612538,0.000028,,,,,0x5A
"CAN","data_field",0.61257,0.000028,,,,,0x64
"CAN","data_field",0.612602,0.000032,,,,,0x00
"CAN","data_field",0.612642,0.000028,,,,,0x64
"CAN","data_field",0.612674,0.000028,,,,,0xAF
"CAN","crc_field",0.612706,0.000056,,,0x0000000000003A77,,
"CAN","ack_field",0.61277,0.000004,,,,true,
"CAN","identifier_field",0.612822,0.000056,0x0000000000000301,,,,
"CAN","control_field",0.612882,0.000016,,0x0000000000000003,,,
"CAN","data_field",0.612902,0.000032,,,,,0xE8
"CAN","data_field",0.612938,0.000032,,,,,0x0F
"CAN","data_field",0.612974,0.000032,,,,,0x00
"CAN","crc_field",0.61301,0.000056,,,0x00000000000077B9,,
"CAN","ack_field",0.613074,0.000004,,,,true,
"CAN","identifier_field",0.661588,0.00006,0x0000000000000300,,,,
"CAN","control_field",0.661652,0.000012,,0x0000000000000008,,,
"CAN","data_field",0.661668,0.000032,,,,,0x03
"CAN","data_field",0.661704,0.000028,,,,,0x5A
"CAN","data_field",0.661736,0.000028,,,,,0x64
"CAN","data_field",0.661768,0.000028,,,,,0x5A
"CAN","data_field",0.6618,0.000028,,,,,0x64
"CAN","data_field",0.661832,0.000032,,,,,0x00
"CAN","data_field",0.661872,0.000028,,,,,0x64
"CAN","data_field",0.661904,0.000028,,,,,0x30
"CAN","crc_field",0.661936,0.000064,,,0x0000000000001209,,
"CAN","ack_field",0.662008,0.000004,,,,true,
"CAN","identifier_field",0.66206,0.000056,0x0000000000000301,,,,
"CAN","control_field",0.66212,0.000016,,0x0000000000000003,,,
"CAN","data_field",0.66214,0.000032,,,,,0xE2
"CAN","data_field",0.662176,0.000032,,,,,0x00
"CAN","data_field",0.662212,0.000036,,,,,0x00
"CAN","crc_field",0.662252,0.000056,,,0x0000000000002F6A,,
"CAN","ack_field",0.662316,0.000004,,,,true,
"CAN","identifier_field",0.711591,0.00006,0x0000000000000300,,,,
"CAN","control_field",0.711655,0.000012,,0x0000000000000008,,,
"CAN","data_field",0.711671,0.000032,,,,,0x03
"CAN","data_field",0.711707,0.000028,,,,,0x5A
"CAN","data_field",0.711739,0.000028,,,,,0x64
"CAN","data_field",0.711771,0.000028,,,,,0x5A
"CAN","data_field",0.711803,0.000028,,,,,0x64
"CAN","data_field",0.711835,0.000032,,,,,0x00
"CAN","data_field",0.711875,0.000028,,,,,0x64
"CAN","data_field",0.711907,0.000028,,,,,0x21
"CAN","crc_field",0.711939,0.000064,,,0x0000000000007A07,,
"CAN","ack_field",0.712011,0.000004,,,,true,
"CAN","identifier_field",0.712063,0.000056,0x0000000000000301,,,,
"CAN","control_field",0.712123,0.000016,,0x0000000000000003,,,
"CAN","data_field",0.712143,0.000028,,,,,0xB3
"CAN","data_field",0.712175,0.000032,,,,,0x01
"CAN","data_field",0.712211,0.000032,,,,,0x00
"CAN","crc_field",0.712247,0.00006,,,0x0000000000007FC5,,
"CAN","ack_field",0.712315,0.000004,,,,true,
"CAN","identifier_field",0.761593,0.00006,0x0000000000000300,,,,
"CAN","control_field",0.761657,0.000012,,0x0000000000000008,,,
"CAN","data_field",0.761673,0.000032,,,,,0x03
"CAN","data_field",0.761709,0.000028,,,,,0x5A
"CAN","data_field",0.761741,0.000028,,,,,0x64
"CAN","data_field",0.761773,0.000028,,,,,0x5A
"CAN","data_field",0.761805,0.000028,,,,,0x64
"CAN","data_field",0.761837,0.000032,,,,,0x00
"CAN","data_field",0.761877,0.000028,,,,,0x64
"CAN","data_field",0.761909,0.000028,,,,,0x32
"CAN","crc_field",0.761941,0.000056,,,0x0000000000005CA2,,
"CAN","ack_field",0.762005,0.000004,,,,true,
"CAN","identifier_field",0.762057,0.000056,0x0000000000000301,,,,
"CAN","control_field",0.762117,0.000016,,0x0000000000000003,,,
"CAN","data_field",0.762137,0.000028,,,,,0x6B
"CAN","data_field",0.762169,0.000032,,,,,0x02
"CAN","data_field",0.762205,0.000032,,,,,0x00
"CAN","crc_field",0.762241,0.000056,,,0x0000000000004E8A,,
"CAN","ack_field",0.762305,0.000004,,,,true,
"CAN","identifier_field",0.811598,0.00006,0x0000000000000300,,,,
"CAN","control_field",0.811662,0.000012,,0x0000000000000008,,,
"CAN","data_field",0.811678,0.000032,,,,,0x03
"CAN","data_field",0.811714,0.000028,,,,,0x5A
"CAN","data_field",0.811746,0.000028,,,,,0x64
"CAN","data_field",0.811778,0.000028,,,,,0x5A
"CAN","data_field",0.81181,0.000028,,,,,0x64
"CAN","data_field",0.811842,0.000032,,,,,0x00
"CAN","data_field",0.811882,0.000028,,,,,0x64
"CAN","data_field",0.811914,0.000028,,,,,0x23
"CAN","crc_field",0.811946,0.000056,,,0x00000000000034AC,,
"CAN","ack_field",0.81201,0.000004,,,,true,
"CAN","identifier_field",0.812062,0.000056,0x0000000000000301,,,,
"CAN","control_field",0.812122,0.000016,,0x0000000000000003,,,
"CAN","data_field",0.812142,0.000028,,,,,0x96
"CAN","data_field",0.812174,0.000032,,,,,0x03
"CAN","data_field",0.81221,0.000032,,,,,0x00
"CAN","crc_field",0.812246,0.00006,,,0x0000000000000AB9,,
"CAN","ack_field",0.812314,0.000004,,,,true,
"CAN","identifier_field",0.861605,0.00006,0x0000000000000300,,,,
"CAN","control_field",0.861669,0.000012,,0x0000000000000008,,,
"CAN","data_field",0.861685,0.000032,,,,,0x03
"CAN","data_field",0.861721,0.000028,,,,,0x5A
"CAN","data_field",0.861753,0.000028,,,,,0x64
"CAN","data_field",0.861785,0.000028,,,,,0x5A
"CAN","data_field",0.861817,0.000028,,,,,0x64
"CAN","data_field",0.861849,0.000032,,,,,0x00
"CAN","data_field",0.861889,0.000028,,,,,0x64
"CAN","data_field",0.861921,0.000028,,,,,0x34
"CAN","crc_field",0.861953,0.000056,,,0x0000000000004AC6,,
"CAN","ack_field",0.862017,0.000004,,,,true,
"CAN","identifier_field",0.862069,0.000056,0x0000000000000301,,,,
"CAN","control_field",0.862129,0.000016,,0x0000000000000003,,,
"CAN","data_field",0.862149,0.000032,,,,,0x03
"CAN","data_field",0.862185,0.000032,,,,,0x04
"CAN","data_field",0.862221,0.000032,,,,,0x00
"CAN","crc_field",0.862261,0.000056,,,0x0000000000000A50,,
"CAN","ack_field",0.862325,0.000004,,,,true,
"CAN","identifier_field",0.911609,0.00006,0x0000000000000300,,,,
"CAN","control_field",0.911673,0.000012,,0x0000000000000008,,,
"CAN","data_field",0.911689,0.000032,,,,,0x03
"CAN","data_field",0.911725,0.000028,,,,,0x5A
"CAN","data_field",0.911757,0.000028,,,,,0x64
"CAN","data_field",0.911789,0.000028,,,,,0x5A
"CAN","data_field",0.911821,0.000028,,,,,0x64
"CAN","data_field",0.911853,0.000032,,,,,0x00
"CAN","data_field",0.911893,0.000028,,,,,0x64
"CAN","data_field",0.911925,0.000028,,,,,0x25
"CAN","crc_field",0.911957,0.000056,,,0x00000000000022C8,,
"CAN","ack_field",0.912021,0.000004,,,,true,
"CAN","identifier_field",0.912073,0.000056,0x0000000000000301,,,,
"CAN","control_field",0.912133,0.000016,,0x0000000000000003,,,
"CAN","data_field",0.912153,0.000028,,,,,0x54
"CAN","data_field",0.912185,0.000032,,,,,0x05
"CAN","data_field",0.912221,0.000032,,,,,0x00
"CAN","crc_field",0.912257,0.000056,,,0x000000000000342C,,
"CAN","ack_field",0.912321,0.000004,,,,true,
"CAN","identifier_field",0.961615,0.00006,0x0000000000000300,,,,
"CAN","control_field",0.961679,0.000012,,0x0000000000000008,,,
"CAN","data_field",0.961695,0.000032,,,,,0x03
"CAN","data_field",0.961731,0.000028,,,,,0xA5
"CAN","data_field",0.961763,0.000028,,,,,0x64
"CAN","data_field",0.961795,0.000028,,,,,0x5A
"CAN","data_field",0.961827,0.000028,,,,,0x64
"CAN","data_field",0.961859,0.000032,,,,,0x00
"CAN","data_field",0.961899,0.000028,,,,,0x64
"CAN","data_field",0.961931,0.000028,,,,,0x76
"CAN","crc_field",0.961963,0.000064,,,0x0000000000002BE0,,
"CAN","ack_field",0.962035,0.000004,,,,true,
"CAN","identifier_field",0.962087,0.000056,0x0000000000000301,,,,
"CAN","control_field",0.962147,0.000016,,0x0000000000000003,,,
"CAN","data_field",0.962167,0.000032,,,,,0xF5
"CAN","data_field",0.962203,0.000032,,,,,0x06
"CAN","data_field",0.962239,0.000032,,,,,0x00
"CAN","crc_field",0.962275,0.00006,,,0x0000000000004168,,
"CAN","ack_field",0.962343,0.000004,,,,true,
"CAN","identifier_field",1.011619,0.00006,0x0000000000000300,,,,
"CAN","control_field",1.011683,0.000012,,0x0000000000000008,,,
"CAN","data_field",1.011699,0.000032,,,,,0x03
"CAN","data_field",1.011735,0.000028,,,,,0xA5
"CAN","data_field",1.011767,0.000028,,,,,0x64
"CAN","data_field",1.011799,0.000028,,,,,0x5A
"CAN","data_field",1.011831,0.000028,,,,,0x64
"CAN","data_field",1.011863,0.000032,,,,,0x00
"CAN","data_field",1.011903,0.000028,,,,,0x64
"CAN","data_field",1.011935,0.000028,,,,,0x67
