name,type,start_time,duration,"identifier","extended","num_data_bytes","RemoteFrame","remote_frame","crc","ack","data"
"CAN","identifier_field",2024-09-25T12:39:05.927450100+00:00,0.00006,0x0000000000000300,,,,,,,
"CAN","control_field",2024-09-25T12:39:05.927514100+00:00,0.000012,,,0x0000000000000008,,,,,
"CAN","data_field",2024-09-25T12:39:05.927530100+00:00,0.000032,,,,,,,,0x03
"CAN","data_field",2024-09-25T12:39:05.927566100+00:00,0.000028,,,,,,,,0x5A
"CAN","data_field",2024-09-25T12:39:05.927598100+00:00,0.000028,,,,,,,,0x64
"CAN","data_field",2024-09-25T12:39:05.927630100+00:00,0.000028,,,,,,,,0x5A
"CAN","data_field",2024-09-25T12:39:05.927662100+00:00,0.000028,,,,,,,,0x64
"CAN","data_field",2024-09-25T12:39:05.927694100+00:00,0.000032,,,,,,,,0x00
"CAN","data_field",2024-09-25T12:39:05.927734100+00:00,0.000028,,,,,,,,0x64
"CAN","data_field",2024-09-25T12:39:05.927766100+00:00,0.000028,,,,,,,,0xAB
"CAN","crc_field",2024-09-25T12:39:05.927798100+00:00,0.000056,,,,,,0x00000000000062B8,,
"CAN","ack_field",2024-09-25T12:39:05.927862100+00:00,0.000004,,,,,,,true,
"CAN","identifier_field",2024-09-25T12:39:05.927914100+00:00,0.000056,0x0000000000000301,,,,,,,
"CAN","control_field",2024-09-25T12:39:05.927974100+00:00,0.000016,,,0x0000000000000003,,,,,
"CAN","data_field",2024-09-25T12:39:05.927994100+00:00,0.000028,,,,,,,,0x43
"CAN","data_field",2024-09-25T12:39:05.928026100+00:00,0.000028,,,,,,,,0x0B
"CAN","data_field",2024-09-25T12:39:05.928058100+00:00,0.000032,,,,,,,,0x00
"CAN","crc_field",2024-09-25T12:39:05.928094100+00:00,0.000056,,,,,,0x00000000000023D1,,
"CAN","ack_field",2024-09-25T12:39:05.928158100+00:00,0.000004,,,,,,,true,
"CAN","identifier_field",2024-09-25T12:39:05.977455600+00:00,0.00006,0x0000000000000300,,,,,,,
"CAN","control_field",2024-09-25T12:39:05.977519600+00:00,0.000012,,,0x0000000000000008,,,,,
"CAN","data_field",2024-09-25T12:39:05.977535600+00:00,0.000032,,,,,,,,0x03
"CAN","data_field",2024-09-25T12:39:05.977571600+00:00,0.000028,,,,,,,,0x5A
"CAN","data_field",2024-09-25T12:39:05.977603600+00:00,0.000028,,,,,,,,0x64
"CAN","data_field",2024-09-25T12:39:05.977635600+00:00,0.000028,,,,,,,,0x5A
"CAN","data_field",2024-09-25T12:39:05.977667600+00:00,0.000028,,,,,,,,0x64
"CAN","data_field",2024-09-25T12:39:05.977699600+00:00,0.000032,,,,,,,,0x00
"CAN","data_field",2024-09-25T12:39:05.977739600+00:00,0.000028,,,,,,,,0x64
"CAN","data_field",2024-09-25T12:39:05.977771600+00:00,0.000028,,,,,,,,0xBC
"CAN","crc_field",2024-09-25T12:39:05.977803600+00:00,0.000056,,,,,,0x0000000000001CD2,,
"CAN","ack_field",2024-09-25T12:39:05.977867600+00:00,0.000004,,,,,,,true,
"CAN","identifier_field",2024-09-25T12:39:05.977919600+00:00,0.000056,0x0000000000000301,,,,,,,
"CAN","control_field",2024-09-25T12:39:05.977979600+00:00,0.000016,,,0x0000000000000003,,,,,
"CAN","data_field",2024-09-25T12:39:05.977999600+00:00,0.000028,,,,,,,,0xB5
"CAN","data_field",2024-09-25T12:39:05.978031600+00:00,0.000028,,,,,,,,0x0C
"CAN","data_field",2024-09-25T12:39:05.978063600+00:00,0.000032,,,,,,,,0x00
"CAN","crc_field",2024-09-25T12:39:05.978103600+00:00,0.00006,,,,,,0x00000000000072FC,,
"CAN","ack_field",2024-09-25T12:39:05.978171600+00:00,0.000004,,,,,,,true,
"CAN","identifier_field",2024-09-25T12:39:06.027460100+00:00,0.00006,0x0000000000000300,,,,,,,
"CAN","control_field",2024-09-25T12:39:06.027524100+00:00,0.000012,,,0x0000000000000008,,,,,
"CAN","data_field",2024-09-25T12:39:06.027540100+00:00,0.000032,,,,,,,,0x03
"CAN","data_field",2024-09-25T12:39:06.027576100+00:00,0.000028,,,,,,,,0x5A
"CAN","data_field",2024-09-25T12:39:06.027608100+00:00,0.000028,,,,,,,,0x64
"CAN","data_field",2024-09-25T12:39:06.027640100+00:00,0.000028,,,,,,,,0x5A
"CAN","data_field",2024-09-25T12:39:06.027672100+00:00,0.000028,,,,,,,,0x64
"CAN","data_field",2024-09-25T12:39:06.027704100+00:00,0.000032,,,,,,,,0x00
"CAN","data_field",2024-09-25T12:39:06.027744100+00:00,0.000028,,,,,,,,0x64
"CAN","data_field",2024-09-25T12:39:06.027776100+00:00,0.000028,,,,,,,,0xAD
"CAN","crc_field",2024-09-25T12:39:06.027808100+00:00,0.000056,,,,,,0x00000000000074DC,,
"CAN","ack_field",2024-09-25T12:39:06.027872100+00:00,0.000004,,,,,,,true,
"CAN","identifier_field",2024-09-25T12:39:06.027924100+00:00,0.000056,0x0000000000000301,,,,,,,
"CAN","control_field",2024-09-25T12:39:06.027984100+00:00,0.000016,,,0x0000000000000003,,,,,
"CAN","data_field",2024-09-25T12:39:06.028004100+00:00,0.000028,,,,,,,,0x4E
"CAN","data_field",2024-09-25T12:39:06.028036100+00:00,0.000032,,,,,,,,0x0D
"CAN","data_field",2024-09-25T12:39:06.028072100+00:00,0.000032,,,,,,,,0x00
"CAN","crc_field",2024-09-25T12:39:06.028108100+00:00,0.00006,,,,,,0x000000000000581C,,
"CAN","ack_field",2024-09-25T12:39:06.028176100+00:00,0.000004,,,,,,,true,
"CAN","identifier_field",2024-09-25T12:39:06.077465600+00:00,0.00006,0x0000000000000300,,,,,,,
"CAN","control_field",2024-09-25T12:39:06.077529600+00:00,0.000012,,,0x0000000000000008,,,,,
"CAN","data_field",2024-09-25T12:39:06.077545600+00:00,0.000032,,,,,,,,0x03
"CAN","data_field",2024-09-25T12:39:06.077581600+00:00,0.000028,,,,,,,,0x5A
"CAN","data_field",2024-09-25T12:39:06.077613600+00:00,0.000028,,,,,,,,0x64
"CAN","data_field",2024-09-25T12:39:06.077645600+00:00,0.000028,,,,,,,,0x5A
"CAN","data_field",2024-09-25T12:39:06.077677600+00:00,0.000028,,,,,,,,0x64
"CAN","data_field",2024-09-25T12:39:06.077709600+00:00,0.000032,,,,,,,,0x00
"CAN","data_field",2024-09-25T12:39:06.077749600+00:00,0.000028,,,,,,,,0x64
"CAN","data_field",2024-09-25T12:39:06.077781600+00:00,0.000032,,,,,,,,0xBE
"CAN","crc_field",2024-09-25T12:39:06.077817600+00:00,0.000056,,,,,,0x0000000000005279,,
"CAN","ack_field",2024-09-25T12:39:06.077881600+00:00,0.000004,,,,,,,true,
"CAN","identifier_field",2024-09-25T12:39:06.077933600+00:00,0.000056,0x0000000000000301,,,,,,,
"CAN","control_field",2024-09-25T12:39:06.077993600+00:00,0.000016,,,0x0000000000000003,,,,,
"CAN","data_field",2024-09-25T12:39:06.078013600+00:00,0.000028,,,,,,,,0x1D
"CAN","data_field",2024-09-25T12:39:06.078045600+00:00,0.000028,,,,,,,,0x0E
"CAN","data_field",2024-09-25T12:39:06.078077600+00:00,0.000032,,,,,,,,0x00
"CAN","crc_field",2024-09-25T12:39:06.078113600+00:00,0.00006,,,,,,0x00000000000060D7,,
"CAN","ack_field",2024-09-25T12:39:06.078181600+00:00,0.000004,,,,,,,true,
"CAN","identifier_field",2024-09-25T12:39:06.127469100+00:00,0.00006,0x0000000000000300,,,,,,,
"CAN","control_field",2024-09-25T12:39:06.127533100+00:00,0.000012,,,0x0000000000000008,,,,,
"CAN","data_field",2024-09-25T12:39:06.127549100+00:00,0.000032,,,,,,,,0x03
"CAN","data_field",2024-09-25T12:39:06.127585100+00:00,0.000028,,,,,,,,0x5A
"CAN","data_field",2024-09-25T12:39:06.127617100+00:00,0.000028,,,,,,,,0x64
"CAN","data_field",2024-09-25T12:39:06.127649100+00:00,0.000028,,,,,,,,0x5A
"CAN","data_field",2024-09-25T12:39:06.127681100+00:00,0.000028,,,,,,,,0x64
"CAN","data_field",2024-09-25T12:39:06.127713100+00:00,0.000032,,,,,,,,0x00
"CAN","data_field",2024-09-25T12:39:06.127753100+00:00,0.000028,,,,,,,,0x64
"CAN","data_field",2024-09-25T12:39:06.127785100+00:00,0.000028,,,,,,,,0xAF
"CAN","crc_field",2024-09-25T12:39:06.127817100+00:00,0.000056,,,,,,0x0000000000003A77,,
"CAN","ack_field",2024-09-25T12:39:06.127881100+00:00,0.000004,,,,,,,true,
"CAN","identifier_field",2024-09-25T12:39:06.127933100+00:00,0.000056,0x0000000000000301,,,,,,,
"CAN","control_field",2024-09-25T12:39:06.127993100+00:00,0.000016,,,0x0000000000000003,,,,,
"CAN","data_field",2024-09-25T12:39:06.128013100+00:00,0.000032,,,,,,,,0xE8
"CAN","data_field",2024-09-25T12:39:06.128049100+00:00,0.000032,,,,,,,,0x0F
"CAN","data_field",2024-09-25T12:39:06.128085100+00:00,0.000032,,,,,,,,0x00
"CAN","crc_field",2024-09-25T12:39:06.128121100+00:00,0.000056,,,,,,0x00000000000077B9,,
"CAN","ack_field",2024-09-25T12:39:06.128185100+00:00,0.000004,,,,,,,true,
"CAN","identifier_field",2024-09-25T12:39:06.177475600+00:00,0.00006,0x0000000000000300,,,,,,,
"CAN","control_field",2024-09-25T12:39:06.177539600+00:00,0.000012,,,0x0000000000000008,,,,,
"CAN","data_field",2024-09-25T12:39:06.177555600+00:00,0.000032,,,,,,,,0x03
"CAN","data_field",2024-09-25T12:39:06.177591600+00:00,0.000028,,,,,,,,0x5A
"CAN","data_field",2024-09-25T12:39:06.177623600+00:00,0.000028,,,,,,,,0x64
"CAN","data_field",2024-09-25T12:39:06.177655600+00:00,0.000028,,,,,,,,0x5A
"CAN","data_field",2024-09-25T12:39:06.177687600+00:00,0.000028,,,,,,,,0x64
"CAN","data_field",2024-09-25T12:39:06.177719600+00:00,0.000032,,,,,,,,0x00
"CAN","data_field",2024-09-25T12:39:06.177759600+00:00,0.000028,,,,,,,,0x64
"CAN","data_field",2024-09-25T12:39:06.177791600+00:00,0.000028,,,,,,,,0x30
"CAN","crc_field",2024-09-25T12:39:06.177823600+00:00,0.000064,,,,,,0x0000000000001209,,
"CAN","ack_field",2024-09-25T12:39:06.177895600+00:00,0.000004,,,,,,,true,
"CAN","identifier_field",2024-09-25T12:39:06.177947600+00:00,0.000056,0x0000000000000301,,,,,,,
"CAN","control_field",2024-09-25T12:39:06.178007600+00:00,0.000016,,,0x0000000000000003,,,,,
"CAN","data_field",2024-09-25T12:39:06.178027600+00:00,0.000032,,,,,,,,0xE2
"CAN","data_field",2024-09-25T12:39:06.178063600+00:00,0.000032,,,,,,,,0x00
"CAN","data_field",2024-09-25T12:39:06.178099600+00:00,0.000036,,,,,,,,0x00
"CAN","crc_field",2024-09-25T12:39:06.178139600+00:00,0.000056,,,,,,0x0000000000002F6A,,
"CAN","ack_field",2024-09-25T12:39:06.178203600+00:00,0.000004,,,,,,,true,
"CAN","identifier_field",2024-09-25T12:39:06.227479100+00:00,0.00006,0x0000000000000300,,,,,,,
"CAN","control_field",2024-09-25T12:39:06.227543100+00:00,0.000012,,,0x0000000000000008,,,,,
"CAN","data_field",2024-09-25T12:39:06.227559100+00:00,0.000032,,,,,,,,0x03
"CAN","data_field",2024-09-25T12:39:06.227595100+00:00,0.000028,,,,,,,,0x5A
"CAN","data_field",2024-09-25T12:39:06.227627100+00:00,0.000028,,,,,,,,0x64
"CAN","data_field",2024-09-25T12:39:06.227659100+00:00,0.000028,,,,,,,,0x5A
"CAN","data_field",2024-09-25T12:39:06.227691100+00:00,0.000028,,,,,,,,0x64
"CAN","data_field",2024-09-25T12:39:06.227723100+00:00,0.000032,,,,,,,,0x00
"CAN","data_field",2024-09-25T12:39:06.227763100+00:00,0.000028,,,,,,,,0x64
"CAN","data_field",2024-09-25T12:39:06.227795100+00:00,0.000028,,,,,,,,0x21
"CAN","crc_field",2024-09-25T12:39:06.227827100+00:00,0.000064,,,,,,0x0000000000007A07,,
"CAN","ack_field",2024-09-25T12:39:06.227899100+00:00,0.000004,,,,,,,true,
"CAN","identifier_field",2024-09-25T12:39:06.227951100+00:00,0.000056,0x0000000000000301,,,,,,,
"CAN","control_field",2024-09-25T12:39:06.228011100+00:00,0.000016,,,0x0000000000000003,,,,,
"CAN","data_field",2024-09-25T12:39:06.228031100+00:00,0.000028,,,,,,,,0xB3
"CAN","data_field",2024-09-25T12:39:06.228063100+00:00,0.000032,,,,,,,,0x01
"CAN","data_field",2024-09-25T12:39:06.228099100+00:00,0.000032,,,,,,,,0x00
"CAN","crc_field",2024-09-25T12:39:06.228135100+00:00,0.00006,,,,,,0x0000000000007FC5,,
"CAN","ack_field",2024-09-25T12:39:06.228203100+00:00,0.000004,,,,,,,true,
"CAN","identifier_field",2024-09-25T12:39:06.278109600+00:00,0.00006,0x0000000000000300,,,,,,,
"CAN","control_field",2024-09-25T12:39:06.278173600+00:00,0.000012,,,0x0000000000000008,,,,,
"CAN","data_field",2024-09-25T12:39:06.278189600+00:00,0.000032,,,,,,,,0x03
"CAN","data_field",2024-09-25T12:39:06.278225600+00:00,0.000028,,,,,,,,0x5A
"CAN","data_field",2024-09-25T12:39:06.278257600+00:00,0.000028,,,,,,,,0x64
"CAN","data_field",2024-09-25T12:39:06.278289600+00:00,0.000028,,,,,,,,0x5A
"CAN","data_field",2024-09-25T12:39:06.278321600+00:00,0.000028,,,,,,,,0x64
"CAN","data_field",2024-09-25T12:39:06.278353600+00:00,0.000032,,,,,,,,0x00
"CAN","data_field",2024-09-25T12:39:06.278393600+00:00,0.000028,,,,,,,,0x64
"CAN","data_field",2024-09-25T12:39:06.278425600+00:00,0.000028,,,,,,,,0x32
"CAN","crc_field",2024-09-25T12:39:06.278457600+00:00,0.000056,,,,,,0x0000000000005CA2,,
"CAN","ack_field",2024-09-25T12:39:06.278521600+00:00,0.000004,,,,,,,true,
"CAN","identifier_field",2024-09-25T12:39:06.278573600+00:00,0.000056,0x0000000000000301,,,,,,,
"CAN","control_field",2024-09-25T12:39:06.278633600+00:00,0.000016,,,0x0000000000000003,,,,,
"CAN","data_field",2024-09-25T12:39:06.278653600+00:00,0.000028,,,,,,,,0x6B
"CAN","data_field",2024-09-25T12:39:06.278685600+00:00,0.000032,,,,,,,,0x02
"CAN","data_field",2024-09-25T12:39:06.278721600+00:00,0.000032,,,,,,,,0x00
"CAN","crc_field",2024-09-25T12:39:06.278757600+00:00,0.000056,,,,,,0x0000000000004E8A,,
"CAN","ack_field",2024-09-25T12:39:06.278821600+00:00,0.000004,,,,,,,true,
"CAN","identifier_field",2024-09-25T12:39:06.328269100+00:00,0.00006,0x0000000000000300,,,,,,,
"CAN","control_field",2024-09-25T12:39:06.328333100+00:00,0.000012,,,0x0000000000000008,,,,,
"CAN","data_field",2024-09-25T12:39:06.328349100+00:00,0.000032,,,,,,,,0x03
"CAN","data_field",2024-09-25T12:39:06.328385100+00:00,0.000028,,,,,,,,0x5A
"CAN","data_field",2024-09-25T12:39:06.328417100+00:00,0.000028,,,,,,,,0x64
"CAN","data_field",2024-09-25T12:39:06.328449100+00:00,0.000028,,,,,,,,0x5A
"CAN","data_field",2024-09-25T12:39:06.328481100+00:00,0.000028,,,,,,,,0x64
"CAN","data_field",2024-09-25T12:39:06.328513100+00:00,0.000032,,,,,,,,0x00
"CAN","data_field",2024-09-25T12:39:06.328553100+00:00,0.000028,,,,,,,,0x64
"CAN","data_field",2024-09-25T12:39:06.328585100+00:00,0.000028,,,,,,,,0x23
"CAN","crc_field",2024-09-25T12:39:06.328617100+00:00,0.000056,,,,,,0x00000000000034AC,,
"CAN","ack_field",2024-09-25T12:39:06.328681100+00:00,0.000004,,,,,,,true,
"CAN","identifier_field",2024-09-25T12:39:06.328733100+00:00,0.000056,0x0000000000000301,,,,,,,
"CAN","control_field",2024-09-25T12:39:06.328793100+00:00,0.000016,,,0x0000000000000003,,,,,
"CAN","data_field",2024-09-25T12:39:06.328813100+00:00,0.000028,,,,,,,,0x96
"CAN","data_field",2024-09-25T12:39:06.328845100+00:00,0.000032,,,,,,,,0x03
"CAN","data_field",2024-09-25T12:39:06.328881100+00:00,0.000032,,,,,,,,0x00
"CAN","crc_field",2024-09-25T12:39:06.328917100+00:00,0.00006,,,,,,0x0000000000000AB9,,
"CAN","ack_field",2024-09-25T12:39:06.328985100+00:00,0.000004,,,,,,,true,
"CAN","identifier_field",2024-09-25T12:39:06.377499600+00:00,0.00006,0x0000000000000300,,,,,,,
"CAN","control_field",2024-09-25T12:39:06.377563600+00:00,0.000012,,,0x0000000000000008,,,,,
"CAN","data_field",2024-09-25T12:39:06.377579600+00:00,0.000032,,,,,,,,0x03
"CAN","data_field",2024-09-25T12:39:06.377615600+00:00,0.000028,,,,,,,,0x5A
"CAN","data_field",2024-09-25T12:39:06.377647600+00:00,0.000028,,,,,,,,0x64
"CAN","data_field",2024-09-25T12:39:06.377679600+00:00,0.000028,,,,,,,,0x5A
"CAN","data_field",2024-09-25T12:39:06.377711600+00:00,0.000028,,,,,,,,0x64
"CAN","data_field",2024-09-25T12:39:06.377743600+00:00,0.000032,,,,,,,,0x00
"CAN","data_field",2024-09-25T12:39:06.377783600+00:00,0.000028,,,,,,,,0x64
"CAN","data_field",2024-09-25T12:39:06.377815600+00:00,0.000028,,,,,,,,0x34
"CAN","crc_field",2024-09-25T12:39:06.377847600+00:00,0.000056,,,,,,0x0000000000004AC6,,
"CAN","ack_field",2024-09-25T12:39:06.377911600+00:00,0.000004,,,,,,,true,
"CAN","identifier_field",2024-09-25T12:39:06.377963600+00:00,0.000056,0x0000000000000301,,,,,,,
"CAN","control_field",2024-09-25T12:39:06.378023600+00:00,0.000016,,,0x0000000000000003,,,,,
"CAN","data_field",2024-09-25T12:39:06.378043600+00:00,0.000032,,,,,,,,0x03
"CAN","data_field",2024-09-25T12:39:06.378079600+00:00,0.000032,,,,,,,,0x04
"CAN","data_field",2024-09-25T12:39:06.378115600+00:00,0.000032,,,,,,,,0x00
"CAN","crc_field",2024-09-25T12:39:06.378155600+00:00,0.000056,,,,,,0x0000000000000A50,,
"CAN","ack_field",2024-09-25T12:39:06.378219600+00:00,0.000004,,,,,,,true,
"CAN","identifier_field",2024-09-25T12:39:06.427502600+00:00,0.00006,0x0000000000000300,,,,,,,
"CAN","control_field",2024-09-25T12:39:06.427566600+00:00,0.000012,,,0x0000000000000008,,,,,
"CAN","data_field",2024-09-25T12:39:06.427582600+00:00,0.000032,,,,,,,,0x03
"CAN","data_field",2024-09-25T12:39:06.427618600+00:00,0.000028,,,,,,,,0x5A
"CAN","data_field",2024-09-25T12:39:06.427650600+00:00,0.000028,,,,,,,,0x64
"CAN","data_field",2024-09-25T12:39:06.427682600+00:00,0.000028,,,,,,,,0x5A
"CAN","data_field",2024-09-25T12:39:06.427714600+00:00,0.000028,,,,,,,,0x64
"CAN","data_field",2024-09-25T12:39:06.427746600+00:00,0.000032,,,,,,,,0x00
"CAN","data_field",2024-09-25T12:39:06.427786600+00:00,0.000028,,,,,,,,0x64
"CAN","data_field",2024-09-25T12:39:06.427818600+00:00,0.000028,,,,,,,,0x25
"CAN","crc_field",2024-09-25T12:39:06.427850600+00:00,0.000056,,,,,,0x00000000000022C8,,
"CAN","ack_field",2024-09-25T12:39:06.427914600+00:00,0.000004,,,,,,,true,
"CAN","identifier_field",2024-09-25T12:39:06.427966600+00:00,0.000056,0x0000000000000301,,,,,,,
"CAN","control_field",2024-09-25T12:39:06.428026600+00:00,0.000016,,,0x0000000000000003,,,,,
"CAN","data_field",2024-09-25T12:39:06.428046600+00:00,0.000028,,,,,,,,0x54
"CAN","data_field",2024-09-25T12:39:06.428078600+00:00,0.000032,,,,,,,,0x05
"CAN","data_field",2024-09-25T12:39:06.428114600+00:00,0.000032,,,,,,,,0x00
"CAN","crc_field",2024-09-25T12:39:06.428150600+00:00,0.000056,,,,,,0x000000000000342C,,
"CAN","ack_field",2024-09-25T12:39:06.428214600+00:00,0.000004,,,,,,,true,
"CAN","identifier_field",2024-09-25T12:39:06.477506100+00:00,0.00006,0x0000000000000300,,,,,,,
"CAN","control_field",2024-09-25T12:39:06.477570100+00:00,0.000012,,,0x0000000000000008,,,,,
"CAN","data_field",2024-09-25T12:39:06.477586100+00:00,0.000032,,,,,,,,0x03
"CAN","data_field",2024-09-25T12:39:06.477622100+00:00,0.000028,,,,,,,,0x5A
"CAN","data_field",2024-09-25T12:39:06.477654100+00:00,0.000028,,,,,,,,0x64
"CAN","data_field",2024-09-25T12:39:06.477686100+00:00,0.000028,,,,,,,,0x5A
"CAN","data_field",2024-09-25T12:39:06.477718100+00:00,0.000028,,,,,,,,0x64
"CAN","data_field",2024-09-25T12:39:06.477750100+00:00,0.000032,,,,,,,,0x00
"CAN","data_field",2024-09-25T12:39:06.477790100+00:00,0.000028,,,,,,,,0x64
"CAN","data_field",2024-09-25T12:39:06.477822100+00:00,0.000028,,,,,,,,0x36
"CAN","crc_field",2024-09-25T12:39:06.477854100+00:00,0.00006,,,,,,0x000000000000046D,,
"CAN","ack_field",2024-09-25T12:39:06.477922100+00:00,0.000004,,,,,,,true,
"CAN","identifier_field",2024-09-25T12:39:06.477974100+00:00,0.000056,0x0000000000000301,,,,,,,
"CAN","control_field",2024-09-25T12:39:06.478034100+00:00,0.000016,,,0x0000000000000003,,,,,
"CAN","data_field",2024-09-25T12:39:06.478054100+00:00,0.000032,,,,,,,,0xF5
"CAN","data_field",2024-09-25T12:39:06.478090100+00:00,0.000032,,,,,,,,0x06
"CAN","data_field",2024-09-25T12:39:06.478126100+00:00,0.000032,,,,,,,,0x00
"CAN","crc_field",2024-09-25T12:39:06.478162100+00:00,0.00006,,,,,,0x0000000000004168,,
"CAN","ack_field",2024-09-25T12:39:06.478230100+00:00,0.000004,,,,,,,true,
"CAN","identifier_field",2024-09-25T12:39:06.527512100+00:00,0.00006,0x0000000000000300,,,,,,,
"CAN","control_field",2024-09-25T12:39:06.527576100+00:00,0.000012,,,0x0000000000000008,,,,,
"CAN","data_field",2024-09-25T12:39:06.527592100+00:00,0.000032,,,,,,,,0x03
"CAN","data_field",2024-09-25T12:39:06.527628100+00:00,0.000028,,,,,,,,0x5A
"CAN","data_field",2024-09-25T12:39:06.527660100+00:00,0.000028,,,,,,,,0x64
"CAN","data_field",2024-09-25T12:39:06.527692100+00:00,0.000028,,,,,,,,0x5A
"CAN","data_field",2024-09-25T12:39:06.527724100+00:00,0.000028,,,,,,,,0x64
"CAN","data_field",2024-09-25T12:39:06.527756100+00:00,0.000032,,,,,,,,0x00
"CAN","data_field",2024-09-25T12:39:06.527796100+00:00,0.000028,,,,,,,,0x64
"CAN","data_field",2024-09-25T12:39:06.527828100+00:00,0.000028,,,,,,,,0x27
"CAN","crc_field",2024-09-25T12:39:06.527860100+00:00,0.00006,,,,,,0x0000000000006C63,,
"CAN","ack_field",2024-09-25T12:39:06.527928100+00:00,0.000004,,,,,,,true,
"CAN","identifier_field",2024-09-25T12:39:06.527980600+00:00,0.000056,0x0000000000000301,,,,,,,
"CAN","control_field",2024-09-25T12:39:06.528040600+00:00,0.000016,,,0x0000000000000003,,,,,
"CAN","data_field",2024-09-25T12:39:06.528060600+00:00,0.000028,,,,,,,,0xB8
"CAN","data_field",2024-09-25T12:39:06.528092600+00:00,0.000032,,,,,,,,0x07
"CAN","data_field",2024-09-25T12:39:06.528128600+00:00,0.000032,,,,,,,,0x00
