name,type,start_time,duration,"identifier","num_data_bytes","crc","ack","data"
"CAN","identifier_field",2024-09-25T12:29:02.592185000+00:00,0.00006,0x0000000000000300,,,,
"CAN","control_field",2024-09-25T12:29:02.592249000+00:00,0.000012,,0x0000000000000008,,,
"CAN","data_field",2024-09-25T12:29:02.592265000+00:00,0.000032,,,,,0x03
"CAN","data_field",2024-09-25T12:29:02.592301000+00:00,0.000028,,,,,0x5A
"CAN","data_field",2024-09-25T12:29:02.592333000+00:00,0.000028,,,,,0x64
"CAN","data_field",2024-09-25T12:29:02.592365000+00:00,0.000028,,,,,0x5A
"CAN","data_field",2024-09-25T12:29:02.592397000+00:00,0.000028,,,,,0x32
"CAN","data_field",2024-09-25T12:29:02.592429000+00:00,0.000032,,,,,0x00
"CAN","data_field",2024-09-25T12:29:02.592465000+00:00,0.000032,,,,,0x32
"CAN","data_field",2024-09-25T12:29:02.592501000+00:00,0.000028,,,,,0x72
"CAN","crc_field",2024-09-25T12:29:02.592533000+00:00,0.000056,,,0x0000000000002DBB,,
"CAN","ack_field",2024-09-25T12:29:02.592597000+00:00,0.000004,,,,true,
"CAN","identifier_field",2024-09-25T12:29:02.592649500+00:00,0.000056,0x0000000000000301,,,,
"CAN","control_field",2024-09-25T12:29:02.592709500+00:00,0.000016,,0x0000000000000003,,,
"CAN","data_field",2024-09-25T12:29:02.592729500+00:00,0.000028,,,,,0x6B
"CAN","data_field",2024-09-25T12:29:02.592761500+00:00,0.000032,,,,,0x02
"CAN","data_field",2024-09-25T12:29:02.592797500+00:00,0.000032,,,,,0x00
"CAN","crc_field",2024-09-25T12:29:02.592833500+00:00,0.000056,,,0x0000000000004E8A,,
"CAN","ack_field",2024-09-25T12:29:02.592897500+00:00,0.000004,,,,true,
"CAN","identifier_field",2024-09-25T12:29:02.642190500+00:00,0.00006,0x0000000000000300,,,,
"CAN","control_field",2024-09-25T12:29:02.642254500+00:00,0.000012,,0x0000000000000008,,,
"CAN","data_field",2024-09-25T12:29:02.642270500+00:00,0.000032,,,,,0x03
"CAN","data_field",2024-09-25T12:29:02.642306500+00:00,0.000028,,,,,0x5A
"CAN","data_field",2024-09-25T12:29:02.642338500+00:00,0.000028,,,,,0x64
"CAN","data_field",2024-09-25T12:29:02.642370500+00:00,0.000028,,,,,0x5A
"CAN","data_field",2024-09-25T12:29:02.642402500+00:00,0.000028,,,,,0x32
"CAN","data_field",2024-09-25T12:29:02.642434500+00:00,0.000032,,,,,0x00
"CAN","data_field",2024-09-25T12:29:02.642470500+00:00,0.000032,,,,,0x32
"CAN","data_field",2024-09-25T12:29:02.642506500+00:00,0.000028,,,,,0x73
"CAN","crc_field",2024-09-25T12:29:02.642538500+00:00,0.00006,,,0x0000000000006822,,
"CAN","ack_field",2024-09-25T12:29:02.642606500+00:00,0.000004,,,,true,
"CAN","identifier_field",2024-09-25T12:29:02.642658500+00:00,0.000056,0x0000000000000301,,,,
"CAN","control_field",2024-09-25T12:29:02.642718500+00:00,0.000016,,0x0000000000000003,,,
"CAN","data_field",2024-09-25T12:29:02.642738500+00:00,0.000028,,,,,0x96
"CAN","data_field",2024-09-25T12:29:02.642770500+00:00,0.000032,,,,,0x03
"CAN","data_field",2024-09-25T12:29:02.642806500+00:00,0.000032,,,,,0x00
"CAN","crc_field",2024-09-25T12:29:02.642842500+00:00,0.00006,,,0x0000000000000AB9,,
"CAN","ack_field",2024-09-25T12:29:02.642910500+00:00,0.000004,,,,true,
"CAN","identifier_field",2024-09-25T12:29:02.692195500+00:00,0.00006,0x0000000000000300,,,,
"CAN","control_field",2024-09-25T12:29:02.692259500+00:00,0.000012,,0x0000000000000008,,,
"CAN","data_field",2024-09-25T12:29:02.692275500+00:00,0.000032,,,,,0x03
"CAN","data_field",2024-09-25T12:29:02.692311500+00:00,0.000028,,,,,0x5A
"CAN","data_field",2024-09-25T12:29:02.692343500+00:00,0.000028,,,,,0x64
"CAN","data_field",2024-09-25T12:29:02.692375500+00:00,0.000028,,,,,0x5A
"CAN","data_field",2024-09-25T12:29:02.692407500+00:00,0.000028,,,,,0x32
"CAN","data_field",2024-09-25T12:29:02.692439500+00:00,0.000032,,,,,0x00
"CAN","data_field",2024-09-25T12:29:02.692475500+00:00,0.000032,,,,,0x32
"CAN","data_field",2024-09-25T12:29:02.692511500+00:00,0.000028,,,,,0x34
"CAN","crc_field",2024-09-25T12:29:02.692543500+00:00,0.00006,,,0x000000000000481A,,
"CAN","ack_field",2024-09-25T12:29:02.692611500+00:00,0.000004,,,,true,
"CAN","identifier_field",2024-09-25T12:29:02.692663500+00:00,0.000056,0x0000000000000301,,,,
"CAN","control_field",2024-09-25T12:29:02.692723500+00:00,0.000016,,0x0000000000000003,,,
"CAN","data_field",2024-09-25T12:29:02.692743500+00:00,0.000032,,,,,0x03
"CAN","data_field",2024-09-25T12:29:02.692779500+00:00,0.000032,,,,,0x04
"CAN","data_field",2024-09-25T12:29:02.692815500+00:00,0.000032,,,,,0x00
"CAN","crc_field",2024-09-25T12:29:02.692855500+00:00,0.000056,,,0x0000000000000A50,,
"CAN","ack_field",2024-09-25T12:29:02.692919500+00:00,0.000004,,,,true,
"CAN","identifier_field",2024-09-25T12:29:02.742201000+00:00,0.00006,0x0000000000000300,,,,
"CAN","control_field",2024-09-25T12:29:02.742265000+00:00,0.000012,,0x0000000000000008,,,
"CAN","data_field",2024-09-25T12:29:02.742281000+00:00,0.000032,,,,,0x03
"CAN","data_field",2024-09-25T12:29:02.742317000+00:00,0.000028,,,,,0xA5
"CAN","data_field",2024-09-25T12:29:02.742349000+00:00,0.000028,,,,,0x64
"CAN","data_field",2024-09-25T12:29:02.742381000+00:00,0.000028,,,,,0x5A
"CAN","data_field",2024-09-25T12:29:02.742413000+00:00,0.000028,,,,,0x32
"CAN","data_field",2024-09-25T12:29:02.742445000+00:00,0.000032,,,,,0x00
"CAN","data_field",2024-09-25T12:29:02.742481000+00:00,0.000032,,,,,0x32
"CAN","data_field",2024-09-25T12:29:02.742517000+00:00,0.000028,,,,,0x75
"CAN","crc_field",2024-09-25T12:29:02.742549000+00:00,0.00006,,,0x000000000000220E,,
"CAN","ack_field",2024-09-25T12:29:02.742617000+00:00,0.000004,,,,true,
"CAN","identifier_field",2024-09-25T12:29:02.742669000+00:00,0.000056,0x0000000000000301,,,,
"CAN","control_field",2024-09-25T12:29:02.742729000+00:00,0.000016,,0x0000000000000003,,,
"CAN","data_field",2024-09-25T12:29:02.742749000+00:00,0.000028,,,,,0x54
"CAN","data_field",2024-09-25T12:29:02.742781000+00:00,0.000032,,,,,0x05
"CAN","data_field",2024-09-25T12:29:02.742817000+00:00,0.000032,,,,,0x00
"CAN","crc_field",2024-09-25T12:29:02.742853000+00:00,0.000056,,,0x000000000000342C,,
"CAN","ack_field",2024-09-25T12:29:02.742917000+00:00,0.000004,,,,true,
"CAN","identifier_field",2024-09-25T12:29:02.792206500+00:00,0.00006,0x0000000000000300,,,,
"CAN","control_field",2024-09-25T12:29:02.792270500+00:00,0.000012,,0x0000000000000008,,,
"CAN","data_field",2024-09-25T12:29:02.792286500+00:00,0.000032,,,,,0x03
"CAN","data_field",2024-09-25T12:29:02.792322500+00:00,0.000028,,,,,0xA5
"CAN","data_field",2024-09-25T12:29:02.792354500+00:00,0.000028,,,,,0x64
"CAN","data_field",2024-09-25T12:29:02.792386500+00:00,0.000028,,,,,0x5A
"CAN","data_field",2024-09-25T12:29:02.792418500+00:00,0.000028,,,,,0x32
"CAN","data_field",2024-09-25T12:29:02.792450500+00:00,0.000032,,,,,0x00
"CAN","data_field",2024-09-25T12:29:02.792486500+00:00,0.000032,,,,,0x32
"CAN","data_field",2024-09-25T12:29:02.792522500+00:00,0.000028,,,,,0x76
"CAN","crc_field",2024-09-25T12:29:02.792554500+00:00,0.000056,,,0x000000000000293C,,
"CAN","ack_field",2024-09-25T12:29:02.792618500+00:00,0.000004,,,,true,
"CAN","identifier_field",2024-09-25T12:29:02.792670500+00:00,0.000056,0x0000000000000301,,,,
"CAN","control_field",2024-09-25T12:29:02.792730500+00:00,0.000016,,0x0000000000000003,,,
"CAN","data_field",2024-09-25T12:29:02.792750500+00:00,0.000032,,,,,0xF5
"CAN","data_field",2024-09-25T12:29:02.792786500+00:00,0.000032,,,,,0x06
"CAN","data_field",2024-09-25T12:29:02.792822500+00:00,0.000032,,,,,0x00
"CAN","crc_field",2024-09-25T12:29:02.792858500+00:00,0.00006,,,0x0000000000004168,,
"CAN","ack_field",2024-09-25T12:29:02.792926500+00:00,0.000004,,,,true,
"CAN","identifier_field",2024-09-25T12:29:02.842211500+00:00,0.00006,0x0000000000000300,,,,
"CAN","control_field",2024-09-25T12:29:02.842275500+00:00,0.000012,,0x0000000000000008,,,
"CAN","data_field",2024-09-25T12:29:02.842291500+00:00,0.000032,,,,,0x03
"CAN","data_field",2024-09-25T12:29:02.842327500+00:00,0.000028,,,,,0xA5
"CAN","data_field",2024-09-25T12:29:02.842359500+00:00,0.000028,,,,,0x64
"CAN","data_field",2024-09-25T12:29:02.842391500+00:00,0.000028,,,,,0x5A
"CAN","data_field",2024-09-25T12:29:02.842423500+00:00,0.000028,,,,,0x32
"CAN","data_field",2024-09-25T12:29:02.842455500+00:00,0.000032,,,,,0x00
"CAN","data_field",2024-09-25T12:29:02.842491500+00:00,0.000032,,,,,0x32
"CAN","data_field",2024-09-25T12:29:02.842527500+00:00,0.000028,,,,,0x77
"CAN","crc_field",2024-09-25T12:29:02.842559500+00:00,0.00006,,,0x0000000000006CA5,,
"CAN","ack_field",2024-09-25T12:29:02.842627500+00:00,0.000004,,,,true,
"CAN","identifier_field",2024-09-25T12:29:02.842679500+00:00,0.000056,0x0000000000000301,,,,
"CAN","control_field",2024-09-25T12:29:02.842739500+00:00,0.000016,,0x0000000000000003,,,
"CAN","data_field",2024-09-25T12:29:02.842759500+00:00,0.000028,,,,,0xB8
"CAN","data_field",2024-09-25T12:29:02.842791500+00:00,0.000032,,,,,0x07
"CAN","data_field",2024-09-25T12:29:02.842827500+00:00,0.000032,,,,,0x00
"CAN","crc_field",2024-09-25T12:29:02.842863500+00:00,0.000056,,,0x0000000000006ADB,,
"CAN","ack_field",2024-09-25T12:29:02.842927500+00:00,0.000004,,,,true,
"CAN","identifier_field",2024-09-25T12:29:02.892994500+00:00,0.00006,0x0000000000000300,,,,
"CAN","control_field",2024-09-25T12:29:02.893058500+00:00,0.000012,,0x0000000000000008,,,
"CAN","data_field",2024-09-25T12:29:02.893074500+00:00,0.000032,,,,,0x03
"CAN","data_field",2024-09-25T12:29:02.893110500+00:00,0.000028,,,,,0xA5
"CAN","data_field",2024-09-25T12:29:02.893142500+00:00,0.000028,,,,,0x64
"CAN","data_field",2024-09-25T12:29:02.893174500+00:00,0.000028,,,,,0x5A
"CAN","data_field",2024-09-25T12:29:02.893206500+00:00,0.000028,,,,,0x32
"CAN","data_field",2024-09-25T12:29:02.893238500+00:00,0.000032,,,,,0x00
"CAN","data_field",2024-09-25T12:29:02.893274500+00:00,0.000032,,,,,0x32
"CAN","data_field",2024-09-25T12:29:02.893310500+00:00,0.000028,,,,,0xB8
"CAN","crc_field",2024-09-25T12:29:02.893342500+00:00,0.00006,,,0x0000000000001A89,,
"CAN","ack_field",2024-09-25T12:29:02.893410500+00:00,0.000004,,,,true,
"CAN","identifier_field",2024-09-25T12:29:02.893462500+00:00,0.000056,0x0000000000000301,,,,
"CAN","control_field",2024-09-25T12:29:02.893522500+00:00,0.000016,,0x0000000000000003,,,
"CAN","data_field",2024-09-25T12:29:02.893542500+00:00,0.000032,,,,,0x80
"CAN","data_field",2024-09-25T12:29:02.893578500+00:00,0.000032,,,,,0x08
"CAN","data_field",2024-09-25T12:29:02.893614500+00:00,0.000036,,,,,0x00
"CAN","crc_field",2024-09-25T12:29:02.893654500+00:00,0.000056,,,0x0000000000007745,,
"CAN","ack_field",2024-09-25T12:29:02.893718500+00:00,0.000004,,,,true,
"CAN","identifier_field",2024-09-25T12:29:02.942223500+00:00,0.00006,0x0000000000000300,,,,
"CAN","control_field",2024-09-25T12:29:02.942287500+00:00,0.000012,,0x0000000000000008,,,
"CAN","data_field",2024-09-25T12:29:02.942303500+00:00,0.000032,,,,,0x03
"CAN","data_field",2024-09-25T12:29:02.942339500+00:00,0.000028,,,,,0xA5
"CAN","data_field",2024-09-25T12:29:02.942371500+00:00,0.000028,,,,,0x64
"CAN","data_field",2024-09-25T12:29:02.942403500+00:00,0.000028,,,,,0x5A
"CAN","data_field",2024-09-25T12:29:02.942435500+00:00,0.000028,,,,,0x32
"CAN","data_field",2024-09-25T12:29:02.942467500+00:00,0.000032,,,,,0x00
"CAN","data_field",2024-09-25T12:29:02.942503500+00:00,0.000032,,,,,0x32
"CAN","data_field",2024-09-25T12:29:02.942539500+00:00,0.000028,,,,,0xB9
"CAN","crc_field",2024-09-25T12:29:02.942571500+00:00,0.00006,,,0x0000000000005F10,,
"CAN","ack_field",2024-09-25T12:29:02.942639500+00:00,0.000004,,,,true,
"CAN","identifier_field",2024-09-25T12:29:02.942691500+00:00,0.000056,0x0000000000000301,,,,
"CAN","control_field",2024-09-25T12:29:02.942751500+00:00,0.000016,,0x0000000000000003,,,
"CAN","data_field",2024-09-25T12:29:02.942771500+00:00,0.000028,,,,,0x88
"CAN","data_field",2024-09-25T12:29:02.942803500+00:00,0.000032,,,,,0x09
"CAN","data_field",2024-09-25T12:29:02.942839500+00:00,0.000032,,,,,0x00
"CAN","crc_field",2024-09-25T12:29:02.942875500+00:00,0.000064,,,0x000000000000603E,,
"CAN","ack_field",2024-09-25T12:29:02.942947500+00:00,0.000004,,,,true,
"CAN","identifier_field",2024-09-25T12:29:02.992226500+00:00,0.00006,0x0000000000000300,,,,
"CAN","control_field",2024-09-25T12:29:02.992290500+00:00,0.000012,,0x0000000000000008,,,
"CAN","data_field",2024-09-25T12:29:02.992306500+00:00,0.000032,,,,,0x03
"CAN","data_field",2024-09-25T12:29:02.992342500+00:00,0.000028,,,,,0xA5
"CAN","data_field",2024-09-25T12:29:02.992374500+00:00,0.000028,,,,,0x64
"CAN","data_field",2024-09-25T12:29:02.992406500+00:00,0.000028,,,,,0x5A
"CAN","data_field",2024-09-25T12:29:02.992438500+00:00,0.000028,,,,,0x32
"CAN","data_field",2024-09-25T12:29:02.992470500+00:00,0.000032,,,,,0x00
"CAN","data_field",2024-09-25T12:29:02.992506500+00:00,0.000032,,,,,0x32
"CAN","data_field",2024-09-25T12:29:02.992542500+00:00,0.000028,,,,,0xBA
"CAN","crc_field",2024-09-25T12:29:02.992574500+00:00,0.000056,,,0x0000000000005422,,
"CAN","ack_field",2024-09-25T12:29:02.992638500+00:00,0.000004,,,,true,
"CAN","identifier_field",2024-09-25T12:29:02.992690500+00:00,0.000056,0x0000000000000301,,,,
"CAN","control_field",2024-09-25T12:29:02.992750500+00:00,0.000016,,0x0000000000000003,,,
"CAN","data_field",2024-09-25T12:29:02.992770500+00:00,0.000032,,,,,0xC6
"CAN","data_field",2024-09-25T12:29:02.992806500+00:00,0.000032,,,,,0x0A
"CAN","data_field",2024-09-25T12:29:02.992842500+00:00,0.000032,,,,,0x00
"CAN","crc_field",2024-09-25T12:29:02.992878500+00:00,0.00006,,,0x00000000000053FD,,
"CAN","ack_field",2024-09-25T12:29:02.992946500+00:00,0.000004,,,,true,
"CAN","identifier_field",2024-09-25T12:29:03.042231000+00:00,0.00006,0x0000000000000300,,,,
"CAN","control_field",2024-09-25T12:29:03.042295000+00:00,0.000012,,0x0000000000000008,,,
"CAN","data_field",2024-09-25T12:29:03.042311000+00:00,0.000032,,,,,0x03
"CAN","data_field",2024-09-25T12:29:03.042347000+00:00,0.000028,,,,,0xA5
"CAN","data_field",2024-09-25T12:29:03.042379000+00:00,0.000028,,,,,0x64
"CAN","data_field",2024-09-25T12:29:03.042411000+00:00,0.000028,,,,,0x5A
"CAN","data_field",2024-09-25T12:29:03.042443000+00:00,0.000028,,,,,0x32
"CAN","data_field",2024-09-25T12:29:03.042475000+00:00,0.000032,,,,,0x00
"CAN","data_field",2024-09-25T12:29:03.042511000+00:00,0.000032,,,,,0x32
"CAN","data_field",2024-09-25T12:29:03.042547000+00:00,0.000028,,,,,0xBB
"CAN","crc_field",2024-09-25T12:29:03.042579000+00:00,0.000056,,,0x00000000000011BB,,
"CAN","ack_field",2024-09-25T12:29:03.042643000+00:00,0.000004,,,,true,
"CAN","identifier_field",2024-09-25T12:29:03.042695000+00:00,0.000056,0x0000000000000301,,,,
"CAN","control_field",2024-09-25T12:29:03.042755000+00:00,0.000016,,0x0000000000000003,,,
"CAN","data_field",2024-09-25T12:29:03.042775000+00:00,0.000028,,,,,0x43
"CAN","data_field",2024-09-25T12:29:03.042807000+00:00,0.000028,,,,,0x0B
"CAN","data_field",2024-09-25T12:29:03.042839000+00:00,0.000032,,,,,0x00
"CAN","crc_field",2024-09-25T12:29:03.042875000+00:00,0.000056,,,0x00000000000023D1,,
"CAN","ack_field",2024-09-25T12:29:03.042939000+00:00,0.000004,,,,true,
"CAN","identifier_field",2024-09-25T12:29:03.092235500+00:00,0.00006,0x0000000000000300,,,,
"CAN","control_field",2024-09-25T12:29:03.092299500+00:00,0.000012,,0x0000000000000008,,,
"CAN","data_field",2024-09-25T12:29:03.092315500+00:00,0.000032,,,,,0x03
"CAN","data_field",2024-09-25T12:29:03.092351500+00:00,0.000028,,,,,0xA5
"CAN","data_field",2024-09-25T12:29:03.092383500+00:00,0.000028,,,,,0x64
"CAN","data_field",2024-09-25T12:29:03.092415500+00:00,0.000028,,,,,0x5A
"CAN","data_field",2024-09-25T12:29:03.092447500+00:00,0.000028,,,,,0x32
"CAN","data_field",2024-09-25T12:29:03.092479500+00:00,0.000032,,,,,0x00
"CAN","data_field",2024-09-25T12:29:03.092515500+00:00,0.000032,,,,,0x32
"CAN","data_field",2024-09-25T12:29:03.092551500+00:00,0.000032,,,,,0xFC
"CAN","crc_field",2024-09-25T12:29:03.092587500+00:00,0.00006,,,0x0000000000003183,,
"CAN","ack_field",2024-09-25T12:29:03.092655500+00:00,0.000004,,,,true,
"CAN","identifier_field",2024-09-25T12:29:03.092707500+00:00,0.000056,0x0000000000000301,,,,
"CAN","control_field",2024-09-25T12:29:03.092767500+00:00,0.000016,,0x0000000000000003,,,
"CAN","data_field",2024-09-25T12:29:03.092787500+00:00,0.000028,,,,,0xB5
"CAN","data_field",2024-09-25T12:29:03.092819500+00:00,0.000028,,,,,0x0C
"CAN","data_field",2024-09-25T12:29:03.092851500+00:00,0.000032,,,,,0x00
"CAN","crc_field",2024-09-25T12:29:03.092891500+00:00,0.00006,,,0x00000000000072FC,,
"CAN","ack_field",2024-09-25T12:29:03.092959500+00:00,0.000004,,,,true,
"CAN","identifier_field",2024-09-25T12:29:03.142240500+00:00,0.00006,0x0000000000000300,,,,
"CAN","control_field",2024-09-25T12:29:03.142304500+00:00,0.000012,,0x0000000000000008,,,
"CAN","data_field",2024-09-25T12:29:03.142320500+00:00,0.000032,,,,,0x03
"CAN","data_field",2024-09-25T12:29:03.142356500+00:00,0.000028,,,,,0xA5
"CAN","data_field",2024-09-25T12:29:03.142388500+00:00,0.000028,,,,,0x64
"CAN","data_field",2024-09-25T12:29:03.142420500+00:00,0.000028,,,,,0x5A
"CAN","data_field",2024-09-25T12:29:03.142452500+00:00,0.000028,,,,,0x32
"CAN","data_field",2024-09-25T12:29:03.142484500+00:00,0.000032,,,,,0x00
"CAN","data_field",2024-09-25T12:29:03.142520500+00:00,0.000032,,,,,0x32
"CAN","data_field",2024-09-25T12:29:03.142556500+00:00,0.000032,,,,,0xFD
"CAN","crc_field",2024-09-25T12:29:03.142592500+00:00,0.00006,,,0x000000000000741A,,
"CAN","ack_field",2024-09-25T12:29:03.142660500+00:00,0.000004,,,,true,
"CAN","identifier_field",2024-09-25T12:29:03.142712500+00:00,0.000056,0x0000000000000301,,,,
"CAN","control_field",2024-09-25T12:29:03.142772500+00:00,0.000016,,0x0000000000000003,,,
"CAN","data_field",2024-09-25T12:29:03.142792500+00:00,0.000028,,,,,0x4E
"CAN","data_field",2024-09-25T12:29:03.142824500+00:00,0.000032,,,,,0x0D
"CAN","data_field",2024-09-25T12:29:03.142860500+00:00,0.000032,,,,,0x00
"CAN","crc_field",2024-09-25T12:29:03.142896500+00:00,0.00006,,,0x000000000000581C,,
"CAN","ack_field",2024-09-25T12:29:03.142964500+00:00,0.000004,,,,true,
"CAN","identifier_field",2024-09-25T12:29:03.192247500+00:00,0.00006,0x0000000000000300,,,,
"CAN","control_field",2024-09-25T12:29:03.192311500+00:00,0.000012,,0x0000000000000008,,,
"CAN","data_field",2024-09-25T12:29:03.192327500+00:00,0.000032,,,,,0x03
"CAN","data_field",2024-09-25T12:29:03.192363500+00:00,0.000028,,,,,0xA5
"CAN","data_field",2024-09-25T12:29:03.192395500+00:00,0.000028,,,,,0x64
"CAN","data_field",2024-09-25T12:29:03.192427500+00:00,0.000028,,,,,0x5A
"CAN","data_field",2024-09-25T12:29:03.192459500+00:00,0.000028,,,,,0x32
"CAN","data_field",2024-09-25T12:29:03.192491500+00:00,0.000032,,,,,0x00
"CAN","data_field",2024-09-25T12:29:03.192527500+00:00,0.000032,,,,,0x32
"CAN","data_field",2024-09-25T12:29:03.192563500+00:00,0.000032,,,,,0xFE
"CAN","crc_field",2024-09-25T12:29:03.192599500+00:00,0.00006,,,0x0000000000007F28,,
"CAN","ack_field",2024-09-25T12:29:03.192667500+00:00,0.000004,,,,true,
"CAN","identifier_field",2024-09-25T12:29:03.192719500+00:00,0.000056,0x0000000000000301,,,,
"CAN","control_field",2024-09-25T12:29:03.192779500+00:00,0.000016,,0x0000000000000003,,,
"CAN","data_field",2024-09-25T12:29:03.192799500+00:00,0.000028,,,,,0x1D
"CAN","data_field",2024-09-25T12:29:03.192831500+00:00,0.000028,,,,,0x0E
"CAN","data_field",2024-09-25T12:29:03.192863500+00:00,0.000032,,,,,0x00
"CAN","crc_field",2024-09-25T12:29:03.192899500+00:00,0.00006,,,0x00000000000060D7,,
"CAN","ack_field",2024-09-25T12:29:03.192967500+00:00,0.000004,,,,true,
"CAN","identifier_field",2024-09-25T12:29:03.242252500+00:00,0.00006,0x0000000000000300,,,,
"CAN","control_field",2024-09-25T12:29:03.242316500+00:00,0.000012,,0x0000000000000008,,,
"CAN","data_field",2024-09-25T12:29:03.242332500+00:00,0.000032,,,,,0x03
"CAN","data_field",2024-09-25T12:29:03.242368500+00:00,0.000028,,,,,0xA5
"CAN","data_field",2024-09-25T12:29:03.242400500+00:00,0.000028,,,,,0x64
"CAN","data_field",2024-09-25T12:29:03.242432500+00:00,0.000028,,,,,0x5A
"CAN","data_field",2024-09-25T12:29:03.242464500+00:00,0.000028,,,,,0x32
"CAN","data_field",2024-09-25T12:29:03.242496500+00:00,0.000032,,,,,0x00
