name,type,start_time,duration,"identifier","num_data_bytes","crc","ack","data"
"CAN","identifier_field",2024-09-25T11:56:30.975070500+00:00,0.00006,0x0000000000000300,,,,
"CAN","control_field",2024-09-25T11:56:30.975134500+00:00,0.000012,,0x0000000000000008,,,
"CAN","data_field",2024-09-25T11:56:30.975150500+00:00,0.000036,,,,,0x00
"CAN","data_field",2024-09-25T11:56:30.975190500+00:00,0.000028,,,,,0x5A
"CAN","data_field",2024-09-25T11:56:30.975222500+00:00,0.000028,,,,,0x64
"CAN","data_field",2024-09-25T11:56:30.975254500+00:00,0.000028,,,,,0x5A
"CAN","data_field",2024-09-25T11:56:30.975286500+00:00,0.000032,,,,,0x00
"CAN","data_field",2024-09-25T11:56:30.975322500+00:00,0.000036,,,,,0x00
"CAN","data_field",2024-09-25T11:56:30.975362500+00:00,0.000032,,,,,0x00
"CAN","data_field",2024-09-25T11:56:30.975402500+00:00,0.000032,,,,,0xFB
"CAN","crc_field",2024-09-25T11:56:30.975438500+00:00,0.00006,,,0x000000000000403C,,
"CAN","ack_field",2024-09-25T11:56:30.975506500+00:00,0.000004,,,,true,
"CAN","identifier_field",2024-09-25T11:56:30.975558500+00:00,0.000056,0x0000000000000301,,,,
"CAN","control_field",2024-09-25T11:56:30.975618500+00:00,0.000016,,0x0000000000000003,,,
"CAN","data_field",2024-09-25T11:56:30.975638500+00:00,0.000028,,,,,0x43
"CAN","data_field",2024-09-25T11:56:30.975670500+00:00,0.000028,,,,,0x0B
"CAN","data_field",2024-09-25T11:56:30.975702500+00:00,0.000032,,,,,0x00
"CAN","crc_field",2024-09-25T11:56:30.975738500+00:00,0.000056,,,0x00000000000023D1,,
"CAN","ack_field",2024-09-25T11:56:30.975802500+00:00,0.000004,,,,true,
"CAN","identifier_field",2024-09-25T11:56:31.025074000+00:00,0.00006,0x0000000000000300,,,,
"CAN","control_field",2024-09-25T11:56:31.025138000+00:00,0.000012,,0x0000000000000008,,,
"CAN","data_field",2024-09-25T11:56:31.025154000+00:00,0.000036,,,,,0x00
"CAN","data_field",2024-09-25T11:56:31.025194000+00:00,0.000028,,,,,0x5A
"CAN","data_field",2024-09-25T11:56:31.025226000+00:00,0.000028,,,,,0x64
"CAN","data_field",2024-09-25T11:56:31.025258000+00:00,0.000028,,,,,0x5A
"CAN","data_field",2024-09-25T11:56:31.025290000+00:00,0.000032,,,,,0x00
"CAN","data_field",2024-09-25T11:56:31.025326000+00:00,0.000036,,,,,0x00
"CAN","data_field",2024-09-25T11:56:31.025366000+00:00,0.000032,,,,,0x00
"CAN","data_field",2024-09-25T11:56:31.025406000+00:00,0.000028,,,,,0x8C
"CAN","crc_field",2024-09-25T11:56:31.025438000+00:00,0.000056,,,0x00000000000016BD,,
"CAN","ack_field",2024-09-25T11:56:31.025502000+00:00,0.000004,,,,true,
"CAN","identifier_field",2024-09-25T11:56:31.025554000+00:00,0.000056,0x0000000000000301,,,,
"CAN","control_field",2024-09-25T11:56:31.025614000+00:00,0.000016,,0x0000000000000003,,,
"CAN","data_field",2024-09-25T11:56:31.025634000+00:00,0.000028,,,,,0xB5
"CAN","data_field",2024-09-25T11:56:31.025666000+00:00,0.000028,,,,,0x0C
"CAN","data_field",2024-09-25T11:56:31.025698000+00:00,0.000032,,,,,0x00
"CAN","crc_field",2024-09-25T11:56:31.025738000+00:00,0.00006,,,0x00000000000072FC,,
"CAN","ack_field",2024-09-25T11:56:31.025806000+00:00,0.000004,,,,true,
"CAN","identifier_field",2024-09-25T11:56:31.075081500+00:00,0.00006,0x0000000000000300,,,,
"CAN","control_field",2024-09-25T11:56:31.075145500+00:00,0.000012,,0x0000000000000008,,,
"CAN","data_field",2024-09-25T11:56:31.075161500+00:00,0.000036,,,,,0x00
"CAN","data_field",2024-09-25T11:56:31.075201500+00:00,0.000028,,,,,0x5A
"CAN","data_field",2024-09-25T11:56:31.075233500+00:00,0.000028,,,,,0x64
"CAN","data_field",2024-09-25T11:56:31.075265500+00:00,0.000028,,,,,0x5A
"CAN","data_field",2024-09-25T11:56:31.075297500+00:00,0.000032,,,,,0x00
"CAN","data_field",2024-09-25T11:56:31.075333500+00:00,0.000036,,,,,0x00
"CAN","data_field",2024-09-25T11:56:31.075373500+00:00,0.000032,,,,,0x00
"CAN","data_field",2024-09-25T11:56:31.075413500+00:00,0.000028,,,,,0x9D
"CAN","crc_field",2024-09-25T11:56:31.075445500+00:00,0.00006,,,0x0000000000007EB3,,
"CAN","ack_field",2024-09-25T11:56:31.075513500+00:00,0.000004,,,,true,
"CAN","identifier_field",2024-09-25T11:56:31.075565500+00:00,0.000056,0x0000000000000301,,,,
"CAN","control_field",2024-09-25T11:56:31.075625500+00:00,0.000016,,0x0000000000000003,,,
"CAN","data_field",2024-09-25T11:56:31.075645500+00:00,0.000028,,,,,0x4E
"CAN","data_field",2024-09-25T11:56:31.075677500+00:00,0.000032,,,,,0x0D
"CAN","data_field",2024-09-25T11:56:31.075713500+00:00,0.000032,,,,,0x00
"CAN","crc_field",2024-09-25T11:56:31.075749500+00:00,0.00006,,,0x000000000000581C,,
"CAN","ack_field",2024-09-25T11:56:31.075817500+00:00,0.000004,,,,true,
"CAN","identifier_field",2024-09-25T11:56:31.125086000+00:00,0.00006,0x0000000000000300,,,,
"CAN","control_field",2024-09-25T11:56:31.125150000+00:00,0.000012,,0x0000000000000008,,,
"CAN","data_field",2024-09-25T11:56:31.125166000+00:00,0.000036,,,,,0x00
"CAN","data_field",2024-09-25T11:56:31.125206000+00:00,0.000028,,,,,0x5A
"CAN","data_field",2024-09-25T11:56:31.125238000+00:00,0.000028,,,,,0x64
"CAN","data_field",2024-09-25T11:56:31.125270000+00:00,0.000028,,,,,0x5A
"CAN","data_field",2024-09-25T11:56:31.125302000+00:00,0.000032,,,,,0x00
"CAN","data_field",2024-09-25T11:56:31.125338000+00:00,0.000036,,,,,0x00
"CAN","data_field",2024-09-25T11:56:31.125378000+00:00,0.000032,,,,,0x00
"CAN","data_field",2024-09-25T11:56:31.125418000+00:00,0.000028,,,,,0xAE
"CAN","crc_field",2024-09-25T11:56:31.125450000+00:00,0.00006,,,0x0000000000000338,,
"CAN","ack_field",2024-09-25T11:56:31.125518000+00:00,0.000004,,,,true,
"CAN","identifier_field",2024-09-25T11:56:31.125570000+00:00,0.000056,0x0000000000000301,,,,
"CAN","control_field",2024-09-25T11:56:31.125630000+00:00,0.000016,,0x0000000000000003,,,
"CAN","data_field",2024-09-25T11:56:31.125650000+00:00,0.000028,,,,,0x1D
"CAN","data_field",2024-09-25T11:56:31.125682000+00:00,0.000028,,,,,0x0E
"CAN","data_field",2024-09-25T11:56:31.125714000+00:00,0.000032,,,,,0x00
"CAN","crc_field",2024-09-25T11:56:31.125750000+00:00,0.00006,,,0x00000000000060D7,,
"CAN","ack_field",2024-09-25T11:56:31.125818000+00:00,0.000004,,,,true,
"CAN","identifier_field",2024-09-25T11:56:31.175089500+00:00,0.00006,0x0000000000000300,,,,
"CAN","control_field",2024-09-25T11:56:31.175153500+00:00,0.000012,,0x0000000000000008,,,
"CAN","data_field",2024-09-25T11:56:31.175169500+00:00,0.000036,,,,,0x00
"CAN","data_field",2024-09-25T11:56:31.175209500+00:00,0.000028,,,,,0x5A
"CAN","data_field",2024-09-25T11:56:31.175241500+00:00,0.000028,,,,,0x64
"CAN","data_field",2024-09-25T11:56:31.175273500+00:00,0.000028,,,,,0x5A
"CAN","data_field",2024-09-25T11:56:31.175305500+00:00,0.000032,,,,,0x00
"CAN","data_field",2024-09-25T11:56:31.175341500+00:00,0.000036,,,,,0x00
"CAN","data_field",2024-09-25T11:56:31.175381500+00:00,0.000032,,,,,0x00
"CAN","data_field",2024-09-25T11:56:31.175421500+00:00,0.000032,,,,,0xBF
"CAN","crc_field",2024-09-25T11:56:31.175457500+00:00,0.000056,,,0x0000000000006B36,,
"CAN","ack_field",2024-09-25T11:56:31.175521500+00:00,0.000004,,,,true,
"CAN","identifier_field",2024-09-25T11:56:31.175573500+00:00,0.000056,0x0000000000000301,,,,
"CAN","control_field",2024-09-25T11:56:31.175633500+00:00,0.000016,,0x0000000000000003,,,
"CAN","data_field",2024-09-25T11:56:31.175653500+00:00,0.000032,,,,,0xE8
"CAN","data_field",2024-09-25T11:56:31.175689500+00:00,0.000032,,,,,0x0F
"CAN","data_field",2024-09-25T11:56:31.175725500+00:00,0.000032,,,,,0x00
"CAN","crc_field",2024-09-25T11:56:31.175761500+00:00,0.000056,,,0x00000000000077B9,,
"CAN","ack_field",2024-09-25T11:56:31.175825500+00:00,0.000004,,,,true,
"CAN","identifier_field",2024-09-25T11:56:31.225094000+00:00,0.00006,0x0000000000000300,,,,
"CAN","control_field",2024-09-25T11:56:31.225158000+00:00,0.000012,,0x0000000000000008,,,
"CAN","data_field",2024-09-25T11:56:31.225174000+00:00,0.000036,,,,,0x00
"CAN","data_field",2024-09-25T11:56:31.225214000+00:00,0.000028,,,,,0x5A
"CAN","data_field",2024-09-25T11:56:31.225246000+00:00,0.000028,,,,,0x64
"CAN","data_field",2024-09-25T11:56:31.225278000+00:00,0.000028,,,,,0x5A
"CAN","data_field",2024-09-25T11:56:31.225310000+00:00,0.000032,,,,,0x00
"CAN","data_field",2024-09-25T11:56:31.225346000+00:00,0.000036,,,,,0x00
"CAN","data_field",2024-09-25T11:56:31.225386000+00:00,0.000032,,,,,0x00
"CAN","data_field",2024-09-25T11:56:31.225426000+00:00,0.000032,,,,,0x40
"CAN","crc_field",2024-09-25T11:56:31.225462000+00:00,0.000056,,,0x0000000000006BA3,,
"CAN","ack_field",2024-09-25T11:56:31.225526000+00:00,0.000004,,,,true,
"CAN","identifier_field",2024-09-25T11:56:31.225578000+00:00,0.000056,0x0000000000000301,,,,
"CAN","control_field",2024-09-25T11:56:31.225638000+00:00,0.000016,,0x0000000000000003,,,
"CAN","data_field",2024-09-25T11:56:31.225658000+00:00,0.000032,,,,,0xE2
"CAN","data_field",2024-09-25T11:56:31.225694000+00:00,0.000032,,,,,0x00
"CAN","data_field",2024-09-25T11:56:31.225730000+00:00,0.000036,,,,,0x00
"CAN","crc_field",2024-09-25T11:56:31.225770000+00:00,0.000056,,,0x0000000000002F6A,,
"CAN","ack_field",2024-09-25T11:56:31.225834000+00:00,0.000004,,,,true,
"CAN","identifier_field",2024-09-25T11:56:31.275102500+00:00,0.00006,0x0000000000000300,,,,
"CAN","control_field",2024-09-25T11:56:31.275166500+00:00,0.000012,,0x0000000000000008,,,
"CAN","data_field",2024-09-25T11:56:31.275182500+00:00,0.000036,,,,,0x00
"CAN","data_field",2024-09-25T11:56:31.275222500+00:00,0.000028,,,,,0x5A
"CAN","data_field",2024-09-25T11:56:31.275254500+00:00,0.000028,,,,,0x64
"CAN","data_field",2024-09-25T11:56:31.275286500+00:00,0.000028,,,,,0x5A
"CAN","data_field",2024-09-25T11:56:31.275318500+00:00,0.000032,,,,,0x00
"CAN","data_field",2024-09-25T11:56:31.275354500+00:00,0.000036,,,,,0x00
"CAN","data_field",2024-09-25T11:56:31.275394500+00:00,0.000032,,,,,0x00
"CAN","data_field",2024-09-25T11:56:31.275434500+00:00,0.000028,,,,,0x51
"CAN","crc_field",2024-09-25T11:56:31.275466500+00:00,0.00006,,,0x00000000000003AD,,
"CAN","ack_field",2024-09-25T11:56:31.275534500+00:00,0.000004,,,,true,
"CAN","identifier_field",2024-09-25T11:56:31.275586500+00:00,0.000056,0x0000000000000301,,,,
"CAN","control_field",2024-09-25T11:56:31.275646500+00:00,0.000016,,0x0000000000000003,,,
"CAN","data_field",2024-09-25T11:56:31.275666500+00:00,0.000028,,,,,0xB3
"CAN","data_field",2024-09-25T11:56:31.275698500+00:00,0.000032,,,,,0x01
"CAN","data_field",2024-09-25T11:56:31.275734500+00:00,0.000032,,,,,0x00
"CAN","crc_field",2024-09-25T11:56:31.275770500+00:00,0.00006,,,0x0000000000007FC5,,
"CAN","ack_field",2024-09-25T11:56:31.275838500+00:00,0.000004,,,,true,
"CAN","identifier_field",2024-09-25T11:56:31.325106500+00:00,0.00006,0x0000000000000300,,,,
"CAN","control_field",2024-09-25T11:56:31.325170500+00:00,0.000012,,0x0000000000000008,,,
"CAN","data_field",2024-09-25T11:56:31.325186500+00:00,0.000036,,,,,0x00
"CAN","data_field",2024-09-25T11:56:31.325226500+00:00,0.000028,,,,,0x5A
"CAN","data_field",2024-09-25T11:56:31.325258500+00:00,0.000028,,,,,0x64
"CAN","data_field",2024-09-25T11:56:31.325290500+00:00,0.000028,,,,,0x5A
"CAN","data_field",2024-09-25T11:56:31.325322500+00:00,0.000032,,,,,0x00
"CAN","data_field",2024-09-25T11:56:31.325358500+00:00,0.000036,,,,,0x00
"CAN","data_field",2024-09-25T11:56:31.325398500+00:00,0.000032,,,,,0x00
"CAN","data_field",2024-09-25T11:56:31.325438500+00:00,0.000028,,,,,0x62
"CAN","crc_field",2024-09-25T11:56:31.325470500+00:00,0.00006,,,0x0000000000007E26,,
"CAN","ack_field",2024-09-25T11:56:31.325538500+00:00,0.000004,,,,true,
"CAN","identifier_field",2024-09-25T11:56:31.325590500+00:00,0.000056,0x0000000000000301,,,,
"CAN","control_field",2024-09-25T11:56:31.325650500+00:00,0.000016,,0x0000000000000003,,,
"CAN","data_field",2024-09-25T11:56:31.325670500+00:00,0.000028,,,,,0x6B
"CAN","data_field",2024-09-25T11:56:31.325702500+00:00,0.000032,,,,,0x02
"CAN","data_field",2024-09-25T11:56:31.325738500+00:00,0.000032,,,,,0x00
"CAN","crc_field",2024-09-25T11:56:31.325774500+00:00,0.000056,,,0x0000000000004E8A,,
"CAN","ack_field",2024-09-25T11:56:31.325838500+00:00,0.000004,,,,true,
"CAN","identifier_field",2024-09-25T11:56:31.375110500+00:00,0.00006,0x0000000000000300,,,,
"CAN","control_field",2024-09-25T11:56:31.375174500+00:00,0.000012,,0x0000000000000008,,,
"CAN","data_field",2024-09-25T11:56:31.375190500+00:00,0.000036,,,,,0x00
"CAN","data_field",2024-09-25T11:56:31.375230500+00:00,0.000028,,,,,0x5A
"CAN","data_field",2024-09-25T11:56:31.375262500+00:00,0.000028,,,,,0x64
"CAN","data_field",2024-09-25T11:56:31.375294500+00:00,0.000028,,,,,0x5A
"CAN","data_field",2024-09-25T11:56:31.375326500+00:00,0.000032,,,,,0x00
"CAN","data_field",2024-09-25T11:56:31.375362500+00:00,0.000036,,,,,0x00
"CAN","data_field",2024-09-25T11:56:31.375402500+00:00,0.000032,,,,,0x00
"CAN","data_field",2024-09-25T11:56:31.375442500+00:00,0.000028,,,,,0x73
"CAN","crc_field",2024-09-25T11:56:31.375474500+00:00,0.000056,,,0x0000000000001628,,
"CAN","ack_field",2024-09-25T11:56:31.375538500+00:00,0.000004,,,,true,
"CAN","identifier_field",2024-09-25T11:56:31.375590500+00:00,0.000056,0x0000000000000301,,,,
"CAN","control_field",2024-09-25T11:56:31.375650500+00:00,0.000016,,0x0000000000000003,,,
"CAN","data_field",2024-09-25T11:56:31.375670500+00:00,0.000028,,,,,0x96
"CAN","data_field",2024-09-25T11:56:31.375702500+00:00,0.000032,,,,,0x03
"CAN","data_field",2024-09-25T11:56:31.375738500+00:00,0.000032,,,,,0x00
"CAN","crc_field",2024-09-25T11:56:31.375774500+00:00,0.00006,,,0x0000000000000AB9,,
"CAN","ack_field",2024-09-25T11:56:31.375842500+00:00,0.000004,,,,true,
"CAN","identifier_field",2024-09-25T11:56:31.425116500+00:00,0.00006,0x0000000000000300,,,,
"CAN","control_field",2024-09-25T11:56:31.425180500+00:00,0.000012,,0x0000000000000008,,,
"CAN","data_field",2024-09-25T11:56:31.425196500+00:00,0.000036,,,,,0x00
"CAN","data_field",2024-09-25T11:56:31.425236500+00:00,0.000028,,,,,0x5A
"CAN","data_field",2024-09-25T11:56:31.425268500+00:00,0.000028,,,,,0x64
"CAN","data_field",2024-09-25T11:56:31.425300500+00:00,0.000028,,,,,0x5A
"CAN","data_field",2024-09-25T11:56:31.425332500+00:00,0.000032,,,,,0x00
"CAN","data_field",2024-09-25T11:56:31.425368500+00:00,0.000036,,,,,0x00
"CAN","data_field",2024-09-25T11:56:31.425408500+00:00,0.000032,,,,,0x00
"CAN","data_field",2024-09-25T11:56:31.425448500+00:00,0.000032,,,,,0x04
"CAN","crc_field",2024-09-25T11:56:31.425484500+00:00,0.00006,,,0x00000000000040A9,,
"CAN","ack_field",2024-09-25T11:56:31.425552500+00:00,0.000004,,,,true,
"CAN","identifier_field",2024-09-25T11:56:31.425604500+00:00,0.000056,0x0000000000000301,,,,
"CAN","control_field",2024-09-25T11:56:31.425664500+00:00,0.000016,,0x0000000000000003,,,
"CAN","data_field",2024-09-25T11:56:31.425684500+00:00,0.000032,,,,,0x03
"CAN","data_field",2024-09-25T11:56:31.425720500+00:00,0.000032,,,,,0x04
"CAN","data_field",2024-09-25T11:56:31.425756500+00:00,0.000032,,,,,0x00
"CAN","crc_field",2024-09-25T11:56:31.425796500+00:00,0.000056,,,0x0000000000000A50,,
"CAN","ack_field",2024-09-25T11:56:31.425860500+00:00,0.000004,,,,true,
"CAN","identifier_field",2024-09-25T11:56:31.475121000+00:00,0.00006,0x0000000000000300,,,,
"CAN","control_field",2024-09-25T11:56:31.475185000+00:00,0.000012,,0x0000000000000008,,,
"CAN","data_field",2024-09-25T11:56:31.475201000+00:00,0.000036,,,,,0x00
"CAN","data_field",2024-09-25T11:56:31.475241000+00:00,0.000028,,,,,0x5A
"CAN","data_field",2024-09-25T11:56:31.475273000+00:00,0.000028,,,,,0x64
"CAN","data_field",2024-09-25T11:56:31.475305000+00:00,0.000028,,,,,0x5A
"CAN","data_field",2024-09-25T11:56:31.475337000+00:00,0.000032,,,,,0x00
"CAN","data_field",2024-09-25T11:56:31.475373000+00:00,0.000036,,,,,0x00
"CAN","data_field",2024-09-25T11:56:31.475413000+00:00,0.000032,,,,,0x00
"CAN","data_field",2024-09-25T11:56:31.475453000+00:00,0.000028,,,,,0x15
"CAN","crc_field",2024-09-25T11:56:31.475485000+00:00,0.000056,,,0x00000000000028A7,,
"CAN","ack_field",2024-09-25T11:56:31.475549000+00:00,0.000004,,,,true,
"CAN","identifier_field",2024-09-25T11:56:31.475601500+00:00,0.000056,0x0000000000000301,,,,
"CAN","control_field",2024-09-25T11:56:31.475661500+00:00,0.000016,,0x0000000000000003,,,
"CAN","data_field",2024-09-25T11:56:31.475681500+00:00,0.000028,,,,,0x54
"CAN","data_field",2024-09-25T11:56:31.475713500+00:00,0.000032,,,,,0x05
"CAN","data_field",2024-09-25T11:56:31.475749500+00:00,0.000032,,,,,0x00
"CAN","crc_field",2024-09-25T11:56:31.475785500+00:00,0.000056,,,0x000000000000342C,,
"CAN","ack_field",2024-09-25T11:56:31.475849500+00:00,0.000004,,,,true,
"CAN","identifier_field",2024-09-25T11:56:31.525128000+00:00,0.00006,0x0000000000000300,,,,
"CAN","control_field",2024-09-25T11:56:31.525192000+00:00,0.000012,,0x0000000000000008,,,
"CAN","data_field",2024-09-25T11:56:31.525208000+00:00,0.000036,,,,,0x00
"CAN","data_field",2024-09-25T11:56:31.525248000+00:00,0.000028,,,,,0x5A
"CAN","data_field",2024-09-25T11:56:31.525280000+00:00,0.000028,,,,,0x64
"CAN","data_field",2024-09-25T11:56:31.525312000+00:00,0.000028,,,,,0x5A
"CAN","data_field",2024-09-25T11:56:31.525344000+00:00,0.000032,,,,,0x00
"CAN","data_field",2024-09-25T11:56:31.525380000+00:00,0.000036,,,,,0x00
"CAN","data_field",2024-09-25T11:56:31.525420000+00:00,0.000032,,,,,0x00
"CAN","data_field",2024-09-25T11:56:31.525460000+00:00,0.000028,,,,,0x26
"CAN","crc_field",2024-09-25T11:56:31.525492000+00:00,0.000056,,,0x000000000000552C,,
"CAN","ack_field",2024-09-25T11:56:31.525556000+00:00,0.000004,,,,true,
"CAN","identifier_field",2024-09-25T11:56:31.525608000+00:00,0.000056,0x0000000000000301,,,,
"CAN","control_field",2024-09-25T11:56:31.525668000+00:00,0.000016,,0x0000000000000003,,,
"CAN","data_field",2024-09-25T11:56:31.525688000+00:00,0.000032,,,,,0xF5
"CAN","data_field",2024-09-25T11:56:31.525724000+00:00,0.000032,,,,,0x06
"CAN","data_field",2024-09-25T11:56:31.525760000+00:00,0.000032,,,,,0x00
"CAN","crc_field",2024-09-25T11:56:31.525796000+00:00,0.00006,,,0x0000000000004168,,
"CAN","ack_field",2024-09-25T11:56:31.525864000+00:00,0.000004,,,,true,
"CAN","identifier_field",2024-09-25T11:56:31.575134000+00:00,0.00006,0x0000000000000300,,,,
"CAN","control_field",2024-09-25T11:56:31.575198000+00:00,0.000012,,0x0000000000000008,,,
"CAN","data_field",2024-09-25T11:56:31.575214000+00:00,0.000036,,,,,0x00
"CAN","data_field",2024-09-25T11:56:31.575254000+00:00,0.000028,,,,,0x5A
"CAN","data_field",2024-09-25T11:56:31.575286000+00:00,0.000028,,,,,0x64
"CAN","data_field",2024-09-25T11:56:31.575318000+00:00,0.000028,,,,,0x5A
"CAN","data_field",2024-09-25T11:56:31.575350000+00:00,0.000032,,,,,0x00
"CAN","data_field",2024-09-25T11:56:31.575386000+00:00,0.000036,,,,,0x00
"CAN","data_field",2024-09-25T11:56:31.575426000+00:00,0.000032,,,,,0x00
"CAN","data_field",2024-09-25T11:56:31.575466000+00:00,0.000028,,,,,0x37
"CAN","crc_field",2024-09-25T11:56:31.575498000+00:00,0.000056,,,0x0000000000003D22,,
"CAN","ack_field",2024-09-25T11:56:31.575562000+00:00,0.000004,,,,true,
"CAN","identifier_field",2024-09-25T11:56:31.575614000+00:00,0.000056,0x0000000000000301,,,,
"CAN","control_field",2024-09-25T11:56:31.575674000+00:00,0.000016,,0x0000000000000003,,,
"CAN","data_field",2024-09-25T11:56:31.575694000+00:00,0.000028,,,,,0xB8
"CAN","data_field",2024-09-25T11:56:31.575726000+00:00,0.000032,,,,,0x07
"CAN","data_field",2024-09-25T11:56:31.575762000+00:00,0.000032,,,,,0x00
"CAN","crc_field",2024-09-25T11:56:31.575798000+00:00,0.000056,,,0x0000000000006ADB,,
"CAN","ack_field",2024-09-25T11:56:31.575862000+00:00,0.000004,,,,true,
"CAN","identifier_field",2024-09-25T11:56:31.625917000+00:00,0.00006,0x0000000000000300,,,,
"CAN","control_field",2024-09-25T11:56:31.625981000+00:00,0.000012,,0x0000000000000008,,,
"CAN","data_field",2024-09-25T11:56:31.625997000+00:00,0.000036,,,,,0x00
"CAN","data_field",2024-09-25T11:56:31.626037000+00:00,0.000028,,,,,0x5A
"CAN","data_field",2024-09-25T11:56:31.626069000+00:00,0.000028,,,,,0x64
"CAN","data_field",2024-09-25T11:56:31.626101000+00:00,0.000028,,,,,0x5A
"CAN","data_field",2024-09-25T11:56:31.626133000+00:00,0.000032,,,,,0x00
"CAN","data_field",2024-09-25T11:56:31.626169000+00:00,0.000036,,,,,0x00
